;$FILEVERSION=1.1
;$STARTTIME=46004.4211662268
;
;   Start time: 12/13/2025 10:06:28.762.0
;   Generated by PCAN-View v5.3.2.952
;
;   Message Number
;   |         Time Offset (ms)
;   |         |        Type
;   |         |        |        ID (hex)
;   |         |        |        |     Data Length
;   |         |        |        |     |   Data Bytes (hex) ...
;   |         |        |        |     |   |
;---+--   ----+----  --+--  ----+---  +  -+ -- -- -- -- -- -- --
     1)      9162.0  Rx     18FF2CF3  8  08 3C 0C C3 F0 FF 64 00 
     2)      9171.5  Rx     18FF2EF3  8  00 00 00 00 46 05 91 03 
     3)      9181.5  Rx     18FF32F3  8  FF FF FF FF DD 4C FF FF 
     4)      9195.4  Rx     1C01CE21  8  00 00 01 15 27 00 FF FF 
     5)      9212.2  Rx     18FFB8D8  8  00 00 00 00 00 00 00 00 
     6)      9212.9  Rx     18FFB5D8  8  00 00 00 00 9C 00 00 00 
     7)      9214.2  Rx     18FFB9D8  8  00 00 28 00 00 00 28 00 
     8)      9221.3  Rx     18FFF955  8  FF FF 70 00 00 0F 0B 00 
     9)      9222.9  Rx     18FFB6D8  8  00 00 31 04 00 00 00 00 
    10)      9224.3  Rx     18FFC821  8  FF FF FF FF F8 FF FF FF 
    11)      9232.8  Rx     18FFB5D8  8  00 00 00 00 93 00 00 00 
    12)      9234.2  Rx     18FFBBD8  8  00 00 00 00 00 00 00 00 
    13)      9234.5  Rx     18FF7005  8  F0 C0 FF FF 4F FF FC 01 
    14)      9236.2  Rx     18FFBCD8  8  00 00 28 00 00 00 28 00 
    15)      9240.2  Rx     18FFDFD8  8  01 52 34 35 30 33 31 4C 
    16)      9244.5  Rx     0C010305  8  FF FF FF FF FF BC FF 70 
    17)      9252.5  Rx     18FFB5D8  8  00 00 00 00 93 00 00 00 
    18)      9262.2  Rx     18FFE0D8  8  01 52 34 35 30 33 31 4C 
    19)      9262.4  Rx     0CFF0013  8  86 3D 00 00 00 80 04 00 
    20)      9262.7  Rx     18FF2CF3  8  08 3C 0C C3 F0 FF 64 01 
    21)      9271.5  Rx     18FF2EF3  8  00 00 00 00 46 05 91 03 
    22)      9272.5  Rx     18FFB5D8  8  00 00 00 00 95 00 00 00 
    23)      9274.3  Rx     18FFC821  8  FF FF FF FF F8 FF FF FF 
    24)      9281.5  Rx     18FF32F3  8  FF FF FF FF DD 4C FF FF 
    25)      9282.8  Rx     18FFDED8  8  01 48 56 33 45 2D 2D 4C 
    26)      9284.5  Rx     18FF7005  8  F0 C0 FF FF 4F FF FC 01 
    27)      9290.1  Rx     0C0228D0  8  00 00 00 00 02 00 28 28 
    28)      9290.7  Rx     0CF00400  8  FF 7D 89 00 00 FF 00 FF 
    29)      9291.0  Rx     0CFE6CEE  8  FF FF FF FF FF FF 00 00 
    30)      9291.4  Rx     0CFF04D0  8  00 00 00 00 00 00 00 00 
    31)      9292.9  Rx     18FFB5D8  8  00 00 00 00 94 00 00 00 
    32)      9293.5  Rx     18FFCE21  8  82 C0 00 00 FF FF 00 FF 
    33)      9294.3  Rx     18FE0621  8  00 00 00 00 00 00 00 00 
    34)      9294.6  Rx     0C010305  8  FF FF FF FF FF BC FF 01 
    35)      9294.9  Rx     0CFF0AD0  8  00 00 00 00 FF 00 0C 00 
    36)      9295.2  Rx     1802DAD0  8  00 FF FF FF FF 00 00 00 
    37)      9295.5  Rx     18FE64EF  8  00 00 00 00 00 00 00 00 
    38)      9295.8  Rx     1C01CE21  8  00 00 01 15 27 00 FF FF 
    39)      9296.1  Rx     18FE74D0  8  00 00 00 01 00 00 00 00 
    40)      9296.5  Rx     18FEF100  8  00 FF FF 00 FF FF FF FF 
    41)      9296.9  Rx     18FF0BD0  8  FF FF 20 4E 00 FF FF 10 
    42)      9297.2  Rx     18FF0CD0  8  68 00 00 00 00 00 90 01 
    43)      9297.5  Rx     18FF0ED0  8  FD 7F 91 78 FF 02 00 00 
    44)      9297.9  Rx     18FF0FEF  8  00 00 00 00 00 00 00 00 
    45)      9298.2  Rx     18FF10EF  8  00 28 28 20 4E E8 03 12 
    46)      9298.5  Rx     18FF1EEF  8  00 00 00 10 27 00 00 01 
    47)      9310.0  Rx     0CF00400  8  FF 7D 7D 00 00 FF 00 FF 
    48)      9312.8  Rx     18FFB5D8  8  00 00 00 00 93 00 00 00 
    49)      9321.6  Rx     18F0010B  8  CF FF 30 FF FF 5D FF FF 
    50)      9321.9  Rx     18FEBF0B  8  FF FF FF FF FF FF FF FF 
    51)      9322.2  Rx     18FFB7D8  8  00 00 00 00 00 00 00 00 
    52)      9322.5  Rx     18FFDDD8  8  01 48 56 33 45 2D 2D 4C 
    53)      9323.8  Rx     18FFDDD8  8  01 48 56 33 45 2D 2D 4C 
    54)      9324.3  Rx     18FFC821  8  FF FF FF FF F8 FF FF FF 
    55)      9329.9  Rx     0CF00400  8  FF 7D 7D 00 00 FF 00 FF 
    56)      9332.8  Rx     18FFB5D8  8  00 00 00 00 93 00 00 00 
    57)      9334.5  Rx     18FF7005  8  F0 D0 FF FF 4F FF FC 01 
    58)      9340.0  Rx     0CFE6CEE  8  FF FF FF FF FF FF 00 00 
    59)      9344.5  Rx     0C010305  8  FF FF 7D FF FF BC FF 52 
    60)      9350.0  Rx     0CF00400  8  FF 7D 7D 00 00 FF 00 FF 
    61)      9352.8  Rx     18FFB5D8  8  00 00 00 00 92 00 00 00 
    62)      9362.3  Rx     0CFF0013  8  86 3D 00 00 00 80 04 00 
    63)      9362.5  Rx     18FF2CF3  8  08 3C 0C C3 F0 FF 64 02 
    64)      9370.0  Rx     0CF00400  8  FF 7D 7D 00 00 FF 00 FF 
    65)      9371.5  Rx     18FF2EF3  8  00 00 00 00 E8 03 E8 03 
    66)      9371.8  Rx     18FEBF0B  8  FF FF FF FF FF FF FF FF 
    67)      9372.9  Rx     18FFB5D8  8  00 00 00 00 8E 00 00 00 
    68)      9374.5  Rx     18FFC821  8  FF FF FF FF F8 FF FF FF 
    69)      9381.5  Rx     18FF32F3  8  06 14 10 27 DD 4C 00 00 
    70)      9384.3  Rx     18FF7005  8  F0 D0 FF FF 4F FF FC 01 
    71)      9390.2  Rx     0C0228D0  8  00 00 00 00 02 00 28 28 
    72)      9390.5  Rx     0CF00400  8  FF 7D 7D 00 00 FF 00 FF 
    73)      9390.9  Rx     0CFE6CEE  8  FF FF FF FF FF FF 00 00 
    74)      9391.2  Rx     0CFF04D0  8  00 00 00 00 00 00 00 01 
    75)      9391.5  Rx     0CFF0AD0  8  00 00 00 00 FF 00 0C 01 
    76)      9392.9  Rx     18FFB5D8  8  00 00 00 00 8C 00 00 00 
    77)      9393.4  Rx     18FFCE21  8  82 C0 00 00 FF FF 00 FF 
    78)      9394.5  Rx     0C010305  8  FF FF 7D FF FF BC FF 63 
    79)      9394.8  Rx     1802DAD0  8  00 FF FF FF FF 00 00 01 
    80)      9395.1  Rx     18FE0621  8  00 00 00 00 00 00 00 00 
    81)      9395.4  Rx     18FE64EF  8  00 00 00 00 00 00 00 00 
    82)      9395.7  Rx     1C01CE21  8  00 00 01 15 27 00 FF FF 
    83)      9396.0  Rx     18FE74D0  8  00 00 00 01 00 00 00 00 
    84)      9396.4  Rx     18FEF100  8  00 FF FF 00 FF FF FF FF 
    85)      9396.7  Rx     18FF0BD0  8  FF FF 20 4E 00 FF FF 21 
    86)      9397.0  Rx     18FF0CD0  8  68 20 00 00 00 00 90 01 
    87)      9397.4  Rx     18FF0ED0  8  FD 7F FD 7F FF 02 00 00 
    88)      9397.7  Rx     18FF0FEF  8  22 B8 0B E8 03 00 00 00 
    89)      9398.0  Rx     18FF10EF  8  00 28 28 20 4E 20 4E 12 
    90)      9398.4  Rx     18FF1EEF  8  00 00 00 10 27 00 00 01 
    91)      9410.0  Rx     0CF00400  8  FF 7D 7D 00 00 FF 00 FF 
    92)      9412.9  Rx     18FFB5D8  8  00 00 00 00 8B 00 00 00 
    93)      9421.6  Rx     18F0010B  8  CF FF 30 FF FF 5D FF FF 
    94)      9421.9  Rx     18FEBF0B  8  FF FF FF FF FF FF FF FF 
    95)      9424.5  Rx     18FFC821  8  FF FF FF FF F8 FF FF FF 
    96)      9430.0  Rx     0CF00400  8  FF 7D 7D 00 00 FF 00 FF 
    97)      9432.9  Rx     18FFB5D8  8  00 00 00 00 8C 00 00 00 
    98)      9434.5  Rx     18FF7005  8  F0 D0 FF FF 4F FF FC 01 
    99)      9440.0  Rx     0CFE6CEE  8  FF FF FF FF FF FF 00 00 
   100)      9444.3  Rx     0C010305  8  FF FF 7D FF FF BC FF 74 
   101)      9450.0  Rx     0CF00400  8  FF 7D 7D 00 00 FF 00 FF 
   102)      9452.5  Rx     18FFB5D8  8  00 00 00 00 8B 00 00 00 
   103)      9462.3  Rx     0CFF0013  8  86 3D 00 00 00 80 04 00 
   104)      9462.6  Rx     18FF2CF3  8  08 3C 0C C3 F0 FF 64 03 
   105)      9470.0  Rx     0CF00400  8  FF 7D 7D 00 00 FF 00 FF 
   106)      9471.5  Rx     18FF2EF3  8  00 00 00 00 44 05 96 03 
   107)      9471.8  Rx     18FEBF0B  8  FF FF FF FF FF FF FF FF 
   108)      9472.8  Rx     18FFB5D8  8  00 00 00 00 8B 00 00 00 
   109)      9474.3  Rx     18FFC821  8  FF FF FF FF F8 FF FF FF 
   110)      9481.5  Rx     18FF32F3  8  06 14 10 27 DD 4C 2A 00 
   111)      9484.5  Rx     18FF7005  8  F0 D0 FF FF 4F FF FC 01 
   112)      9490.2  Rx     0C0228D0  8  00 00 00 00 02 00 28 28 
   113)      9490.6  Rx     0CF00400  8  FF 7D 7D 00 00 FF 00 FF 
   114)      9490.9  Rx     0CFE6CEE  8  FF FF FF FF FF FF 00 00 
   115)      9491.2  Rx     0CFF04D0  8  00 00 00 00 00 00 00 02 
   116)      9491.6  Rx     0CFF0AD0  8  00 00 00 00 FF 00 0C 02 
   117)      9492.5  Rx     18FFB5D8  8  00 00 00 00 8B 00 00 00 
   118)      9493.7  Rx     18FFCE21  8  82 C0 00 00 FF FF 00 FF 
   119)      9494.5  Rx     0C010305  8  FF FF 7D FF FF BC FF 05 
   120)      9494.8  Rx     1802DAD0  8  00 FF FF FF FF 00 00 02 
   121)      9495.1  Rx     18FE0621  8  00 00 00 00 00 00 00 00 
   122)      9495.4  Rx     18FE64EF  8  00 00 00 00 00 00 00 00 
   123)      9495.7  Rx     18FE74D0  8  00 00 00 01 00 00 00 00 
   124)      9496.0  Rx     1C01CE21  8  00 00 01 15 27 00 FF FF 
   125)      9496.3  Rx     18FEF100  8  00 FF FF 00 FF FF FF FF 
   126)      9496.7  Rx     18FF0BD0  8  FF FF 20 4E 00 FF FF 32 
   127)      9497.0  Rx     18FF0CD0  8  68 40 00 00 00 00 90 01 
   128)      9497.4  Rx     18FF0ED0  8  FD 7F FD 7F FF 02 00 00 
   129)      9497.7  Rx     18FF0FEF  8  24 B8 0B E8 03 00 00 00 
   130)      9498.0  Rx     18FF10EF  8  00 28 28 20 4E 20 4E 12 
   131)      9498.4  Rx     18FF1EEF  8  00 00 00 10 27 00 00 01 
   132)      9505.9  Rx     18FECA64  8  C3 FF 00 00 00 00 00 00 
   133)      9510.1  Rx     0CF00400  8  FF 7D 7D 00 00 FF 00 FF 
   134)      9512.2  Rx     18FFB8D8  8  00 00 00 00 00 00 00 00 
   135)      9512.5  Rx     18FFB5D8  8  00 00 00 00 8B 00 00 00 
   136)      9514.2  Rx     18FFB9D8  8  00 00 25 08 00 00 28 01 
   137)      9521.7  Rx     18F0010B  8  CF FF 30 FF FF 5D FF FF 
   138)      9522.0  Rx     18FEBF0B  8  FF FF FF FF FF FF FF FF 
   139)      9524.3  Rx     18FFC821  8  FF FF FF FF F8 FF FF FF 
   140)      9530.0  Rx     0CF00400  8  FF 7D 7D 00 00 FF 00 FF 
   141)      9532.9  Rx     18FFB5D8  8  00 00 00 00 8B 00 00 00 
   142)      9534.2  Rx     18FFBBD8  8  00 00 00 00 00 00 00 00 
   143)      9534.5  Rx     18FF7005  8  F0 D0 FF FF 4F FF FC 01 
   144)      9536.2  Rx     18FFBCD8  8  00 00 23 08 00 00 28 01 
   145)      9540.1  Rx     0CFE6CEE  8  FF FF FF FF FF FF 00 00 
   146)      9544.5  Rx     0C010305  8  FF FF 7D FF FF BC FF 16 
   147)      9547.8  Rx     18FFBE28  8  BD 11 00 00 00 00 04 33 
   148)      9548.1  Rx     18FFBF28  8  00 00 8B 00 40 06 00 00 
   149)      9550.0  Rx     0CF00400  8  FF 7D 7D 00 00 FF 00 FF 
   150)      9552.9  Rx     18FFB5D8  8  00 00 00 00 8A 00 00 00 
   151)      9562.4  Rx     0CFF0013  8  86 3D 00 00 00 80 04 00 
   152)      9562.7  Rx     18FF2CF3  8  08 3C 0C C3 F0 FF 64 04 
   153)      9563.0  Rx     18FF2DF3  8  F2 06 14 10 27 1C BF 54 
   154)      9570.1  Rx     0CF00400  8  FF 7D 7D 00 00 FF 00 FF 
   155)      9571.5  Rx     18FF2EF3  8  00 00 00 00 44 05 96 03 
   156)      9571.8  Rx     18FEBF0B  8  FF FF FF FF FF FF FF FF 
   157)      9572.1  Rx     18FF30F3  8  81 02 D8 0C 41 03 D4 0C 
   158)      9572.5  Rx     18FFB5D8  8  00 00 00 00 8A 00 00 00 
   159)      9574.5  Rx     18FFC821  8  FF FF FF FF F8 FF FF FF 
   160)      9581.5  Rx     18FF31F3  8  B1 00 28 11 00 27 FF FF 
   161)      9581.7  Rx     18FF32F3  8  06 14 10 27 DD 4C 2A 00 
   162)      9584.5  Rx     18FF7005  8  F0 D0 FF FF 4F FF FC 01 
   163)      9590.2  Rx     0C0228D0  8  00 00 00 00 02 00 28 28 
   164)      9590.6  Rx     0CF00400  8  FF 7D 7D 00 00 FF 00 FF 
   165)      9590.9  Rx     0CFE6CEE  8  FF FF FF FF FF FF 00 00 
   166)      9591.3  Rx     0CFF04D0  8  00 00 00 00 00 00 00 03 
   167)      9591.6  Rx     0CFF0AD0  8  00 00 00 00 FF 00 0C 03 
   168)      9592.9  Rx     18FFB5D8  8  00 00 00 00 8A 00 00 00 
   169)      9593.8  Rx     18FFCE21  8  82 C0 00 00 FF FF 00 FF 
   170)      9594.5  Rx     0C010305  8  FF FF 7D FF FF BC FF 37 
   171)      9594.8  Rx     1802DAD0  8  00 FF FF FF FF 00 00 03 
   172)      9595.1  Rx     18FE1264  8  2B 00 8A 02 00 04 19 18 
   173)      9595.4  Rx     18FE64EF  8  00 00 00 00 00 00 00 00 
   174)      9595.7  Rx     18FE0621  8  00 00 00 00 00 00 00 00 
   175)      9596.0  Rx     18FE74D0  8  00 00 00 00 00 00 00 00 
   176)      9596.3  Rx     1C01CE21  8  00 00 01 15 27 00 FF FF 
   177)      9596.6  Rx     18FEF100  8  00 FF FF 00 FF FF FF FF 
   178)      9596.9  Rx     18FF0BD0  8  FF FF 20 4E 00 FF FF 43 
   179)      9597.2  Rx     18FF0CD0  8  68 60 00 00 00 00 90 01 
   180)      9597.6  Rx     18FF0ED0  8  FD 7F FD 7F FF 02 60 00 
   181)      9597.9  Rx     18FF0FEF  8  26 B8 0B E8 03 00 00 00 
   182)      9598.3  Rx     18FF10EF  8  00 28 28 20 4E 20 4E 12 
   183)      9598.6  Rx     18FF1EEF  8  00 00 00 10 27 00 00 01 
   184)      9610.1  Rx     0CF00400  8  FF 7D 7D 00 00 FF 00 FF 
   185)      9612.9  Rx     18FFB5D8  8  00 00 00 00 8A 00 00 00 
   186)      9621.7  Rx     18F0010B  8  CF FF 30 FF FF 5D FF FF 
   187)      9622.0  Rx     18FEBF0B  8  FF FF FF FF FF FF FF FF 
   188)      9622.3  Rx     18FFB7D8  8  00 00 00 00 00 00 00 00 
   189)      9624.5  Rx     18FFC821  8  FF FF FF FF F8 FF FF FF 
   190)      9630.1  Rx     0CF00400  8  FF 7D 7D 00 00 FF 00 FF 
   191)      9632.9  Rx     18FFB5D8  8  00 00 00 00 8B 00 00 00 
   192)      9634.5  Rx     18FF7005  8  F0 D0 FF FF 4F FF FC 01 
   193)      9640.1  Rx     0CFE6CEE  8  FF FF FF FF FF FF 00 00 
   194)      9644.5  Rx     0C010305  8  FF FF 7D FF FF BC FF 30 
   195)      9650.1  Rx     0CF00400  8  FF 7D 7D 00 00 FF 00 FF 
   196)      9652.9  Rx     18FFB5D8  8  00 00 00 00 8A 00 00 00 
   197)      9662.4  Rx     0CFF0013  8  86 3D 00 00 00 80 04 00 
   198)      9662.7  Rx     18FF2CF3  8  08 3C 0C C3 F0 FF 64 05 
   199)      9670.2  Rx     0CF00400  8  FF 7D 7D 00 00 FF 00 FF 
   200)      9671.5  Rx     18FF2EF3  8  00 00 00 00 44 05 96 03 
   201)      9671.8  Rx     18FEBF0B  8  FF FF FF FF FF FF FF FF 
   202)      9672.9  Rx     18FFB5D8  8  00 00 00 00 8B 00 00 00 
   203)      9674.5  Rx     18FFC821  8  FF FF FF FF F8 FF FF FF 
   204)      9680.1  Rx     0CFFC1D0  8  00 EA 01 00 00 00 08 2D 
   205)      9680.5  Rx     18FF0DD0  8  51 01 00 00 00 0C D0 07 
   206)      9681.5  Rx     18FF32F3  8  06 14 10 27 DD 4C 2A 00 
   207)      9684.5  Rx     18FF7005  8  F0 D0 FF FF 4F FF FC 01 
   208)      9690.3  Rx     0C0228D0  8  00 00 00 00 02 00 27 28 
   209)      9690.6  Rx     0CF00400  8  FF 7D 7D 08 00 FF 00 FF 
   210)      9691.0  Rx     0CFE6CEE  8  FF FF FF FF FF FF 00 00 
   211)      9691.3  Rx     0CFF04D0  8  00 00 00 00 00 00 00 04 
   212)      9691.7  Rx     0CFF0AD0  8  00 00 00 00 FF 00 0C 04 
   213)      9692.9  Rx     18FFB5D8  8  00 00 00 00 8A 00 00 00 
   214)      9694.3  Rx     18FFCE21  8  82 C0 00 00 FF FF 00 FF 
   215)      9694.6  Rx     0C010305  8  FF FF 7D FF FF BC FF 41 
   216)      9694.9  Rx     1802DAD0  8  00 FF FF FF FF 00 00 04 
   217)      9695.2  Rx     18FE1264  8  2B 00 8A 02 00 04 19 18 
   218)      9695.5  Rx     18FE64EF  8  00 00 00 00 00 00 00 00 
   219)      9695.8  Rx     18FE0621  8  00 00 00 00 00 00 00 00 
   220)      9696.1  Rx     18FE74D0  8  00 00 00 00 00 00 00 00 
   221)      9696.4  Rx     18FEF100  8  00 FF FF 00 FF FF FF FF 
   222)      9696.7  Rx     18FF0BD0  8  FF FF 20 4E 00 FF FF 64 
   223)      9697.0  Rx     1C01CE21  8  00 00 01 15 27 00 FF FF 
   224)      9697.3  Rx     18FF0CD0  8  68 80 00 00 00 00 90 01 
   225)      9697.7  Rx     18FF0ED0  8  FD 7F FD 7F FF 02 60 00 
   226)      9698.0  Rx     18FF0FEF  8  27 00 00 00 00 00 00 00 
   227)      9698.4  Rx     18FF10EF  8  00 28 27 21 4E 20 4E 12 
   228)      9698.7  Rx     18FF1EEF  8  00 00 00 10 27 00 00 01 
   229)      9710.1  Rx     0CF00400  8  FF 7D 7D 00 00 FF 00 FF 
   230)      9712.9  Rx     18FFB5D8  8  00 00 00 00 8A 00 00 00 
   231)      9721.4  Rx     18FFF955  8  FF 4D 8C 00 00 0F 0B 00 
   232)      9721.7  Rx     18F0010B  8  CF FF 30 FF FF 5D FF FF 
   233)      9722.0  Rx     18FEBF0B  8  FF FF FF FF FF FF FF FF 
   234)      9724.5  Rx     18FFC821  8  FF FF FF FF F8 FF FF FF 
   235)      9730.1  Rx     0CF00400  8  FF 7D 7D 00 00 FF 00 FF 
   236)      9732.6  Rx     18FFB5D8  8  00 00 00 00 8A 00 00 00 
   237)      9734.5  Rx     18FF7005  8  F0 D0 FF FF 4F FF FC 01 
   238)      9740.2  Rx     0CFE6CEE  8  FF FF FF FF FF FF 00 00 
   239)      9744.5  Rx     0C010305  8  FF FF 7D FF FF BC FF 52 
   240)      9750.2  Rx     0CF00400  8  FF 7D 7D 00 00 FF 00 FF 
   241)      9753.0  Rx     18FFB5D8  8  00 00 00 00 8A 00 00 00 
   242)      9762.5  Rx     0CFF0013  8  86 3D 00 00 00 80 04 00 
   243)      9762.8  Rx     18FF2CF3  8  08 3C 0C C3 F0 FF 64 06 
   244)      9770.2  Rx     0CF00400  8  FF 7D 7D 00 00 FF 00 FF 
   245)      9771.4  Rx     18FF2EF3  8  00 00 00 00 44 05 96 03 
   246)      9771.7  Rx     18FEBF0B  8  FF FF FF FF FF FF FF FF 
   247)      9772.9  Rx     18FFB5D8  8  00 00 00 00 8B 00 00 00 
   248)      9774.5  Rx     18FFC821  8  FF FF FF FF F8 FF FF FF 
   249)      9781.4  Rx     18FF32F3  8  06 14 10 27 DD 4C 2A 00 
   250)      9784.3  Rx     18FF7005  8  F0 D0 FF FF 4F FF FC 01 
   251)      9790.4  Rx     0C0228D0  8  00 00 00 00 02 00 27 28 
   252)      9790.7  Rx     0CF00400  8  FF 7D 7D 00 00 FF 00 FF 
   253)      9791.1  Rx     0CFE6CEE  8  FF FF FF FF FF FF 00 00 
   254)      9791.4  Rx     0CFF04D0  8  00 00 00 00 00 00 00 05 
   255)      9791.8  Rx     0CFF0AD0  8  00 00 00 00 FF 00 0C 05 
   256)      9793.0  Rx     18FFB5D8  8  00 00 00 00 8A 00 00 00 
   257)      9794.0  Rx     18FFCE21  8  82 C0 00 00 FF FF 00 FF 
   258)      9794.5  Rx     0C010305  8  FF FF 7D FF FF BC FF 63 
   259)      9795.0  Rx     1802DAD0  8  00 FF FF FF FF 00 00 05 
   260)      9795.3  Rx     18FE1264  8  2B 00 8A 02 00 04 19 18 
   261)      9795.5  Rx     18FE0621  8  00 00 00 00 00 00 00 00 
   262)      9795.8  Rx     18FE64EF  8  00 00 00 00 00 00 00 00 
   263)      9796.2  Rx     18FE74D0  8  00 00 00 00 00 00 00 00 
   264)      9796.5  Rx     1C01CE21  8  00 00 01 15 27 00 FF FF 
   265)      9796.8  Rx     18FEF100  8  00 FF FF 00 FF FF FF FF 
   266)      9797.1  Rx     18FF0BD0  8  FF FF 20 4E 00 FF FF 75 
   267)      9797.4  Rx     18FF0CD0  8  68 A0 00 00 00 00 90 01 
   268)      9797.8  Rx     18FF0ED0  8  FD 7F FD 7F FF 02 60 00 
   269)      9798.1  Rx     18FF0FEF  8  21 00 00 00 00 00 00 00 
   270)      9798.5  Rx     18FF10EF  8  00 28 27 20 4E 20 4E 12 
   271)      9798.8  Rx     18FF1EEF  8  00 18 00 10 27 00 00 01 
   272)      9810.2  Rx     0CF00400  8  FF 7D 7D 00 00 FF 00 FF 
   273)      9812.2  Rx     18FFB8D8  8  00 00 00 00 00 00 00 00 
   274)      9813.0  Rx     18FFB5D8  8  00 00 00 00 8A 00 00 00 
   275)      9814.2  Rx     18FFB9D8  8  00 00 25 08 00 00 28 02 
   276)      9821.7  Rx     18F0010B  8  CF FF 30 FF FF 5D FF FF 
   277)      9822.0  Rx     18FEBF0B  8  FF FF FF FF FF FF FF FF 
   278)      9824.5  Rx     18FFC821  8  FF FF FF FF F8 FF FF FF 
   279)      9830.3  Rx     0CF00400  8  FF 7D 7D 00 00 FF 00 FF 
   280)      9832.6  Rx     18FFB5D8  8  00 00 00 00 8A 00 00 00 
   281)      9834.2  Rx     18FFBBD8  8  00 00 00 00 00 00 00 00 
   282)      9834.4  Rx     18FF7005  8  F0 D0 FF FF 4F FF FC 01 
   283)      9836.1  Rx     18FFBCD8  8  00 00 23 08 00 00 28 02 
   284)      9840.3  Rx     0CFE6CEE  8  FF FF FF FF FF FF 00 00 
   285)      9844.5  Rx     0C010305  8  FF FF 7D FF FF BC FF 74 
   286)      9850.2  Rx     0CF00400  8  FF 7D 7D 00 00 FF 00 FF 
   287)      9853.0  Rx     18FFB5D8  8  00 00 00 00 8A 00 00 00 
   288)      9862.5  Rx     18FF2CF3  8  08 3C 0C C3 F0 FF 64 07 
   289)      9862.8  Rx     0CFF0013  8  86 3D 00 00 00 80 04 00 
   290)      9870.3  Rx     0CF00400  8  FF 7D 7D 00 00 FF 00 FF 
   291)      9871.5  Rx     18FF2EF3  8  00 00 00 00 44 05 96 03 
   292)      9871.8  Rx     18FEBF0B  8  FF FF FF FF FF FF FF FF 
   293)      9872.6  Rx     18FFB5D8  8  00 00 00 00 8A 00 00 00 
   294)      9874.5  Rx     18FFC821  8  FF FF FF FF F8 FF FF FF 
   295)      9881.4  Rx     18FF32F3  8  06 14 10 27 DD 4C 2A 00 
   296)      9884.4  Rx     18FF7005  8  F0 D0 FF FF 4F FF FC 01 
   297)      9890.4  Rx     0C0228D0  8  00 00 00 00 02 00 27 28 
   298)      9890.8  Rx     0CF00400  8  FF 7D 7D 00 00 FF 00 FF 
   299)      9891.1  Rx     0CFE6CEE  8  FF FF FF FF FF FF 00 00 
   300)      9891.5  Rx     0CFF04D0  8  00 00 00 00 00 00 00 06 
   301)      9891.8  Rx     0CFF0AD0  8  00 00 00 00 FF 00 0C 06 
   302)      9893.0  Rx     18FFB5D8  8  00 00 00 00 8A 00 00 00 
   303)      9894.2  Rx     18FFCE21  8  82 C0 00 00 FF FF 00 FF 
   304)      9894.5  Rx     0C010305  8  FF FF 7D FF FF BC FF 05 
   305)      9895.0  Rx     1802DAD0  8  00 FF FF FF FF 00 00 06 
   306)      9895.3  Rx     18FE1264  8  2B 00 8A 02 00 04 19 18 
   307)      9895.6  Rx     18FE64EF  8  00 00 00 00 00 00 00 00 
   308)      9895.9  Rx     18FE0621  8  00 00 00 00 00 00 00 00 
   309)      9896.2  Rx     18FE74D0  8  00 00 00 00 00 00 00 00 
   310)      9896.5  Rx     18FEF100  8  00 FF FF 00 FF FF FF FF 
   311)      9896.8  Rx     1C01CE21  8  00 00 01 15 27 00 FF FF 
   312)      9897.1  Rx     18FF0BD0  8  FF FF 20 4E 00 FF FF 86 
   313)      9897.4  Rx     18FF0CD0  8  68 C0 00 00 00 00 90 01 
   314)      9897.7  Rx     18FF0ED0  8  FD 7F FD 7F FF 02 60 00 
   315)      9898.1  Rx     18FF0FEF  8  23 00 00 00 00 00 00 00 
   316)      9898.4  Rx     18FF10EF  8  00 28 27 20 4E 20 4E 12 
   317)      9898.8  Rx     18FF1EEF  8  00 19 00 10 27 00 00 01 
   318)      9910.3  Rx     0CF00400  8  FF 7D 7D 00 00 FF 00 FF 
   319)      9913.0  Rx     18FFB5D8  8  00 00 00 00 8A 00 00 00 
   320)      9921.8  Rx     18F0010B  8  CF FF 30 FF FF 5D FF FF 
   321)      9922.1  Rx     18FEBF0B  8  FF FF FF FF FF FF FF FF 
   322)      9922.4  Rx     18FFB7D8  8  00 00 00 00 00 00 00 00 
   323)      9924.5  Rx     18FFC821  8  FF FF FF FF F8 FF FF FF 
   324)      9930.3  Rx     0CF00400  8  FF 7D 7D 00 00 FF 00 FF 
   325)      9933.0  Rx     18FFB5D8  8  00 00 00 00 8B 00 00 00 
   326)      9934.0  Rx     18FFEB21  8  03 2D 31 32 56 30 32 30 
   327)      9934.5  Rx     18FF7005  8  F0 D0 FF FF 4F FF FC 01 
   328)      9940.3  Rx     0CFE6CEE  8  FF FF FF FF FF FF 00 00 
   329)      9944.3  Rx     0C010305  8  FF FF 7D FF FF BC FF 16 
   330)      9950.3  Rx     0CF00400  8  FF 7D 7D 00 00 FF 00 FF 
   331)      9953.0  Rx     18FFB5D8  8  00 00 00 00 8A 00 00 00 
   332)      9962.5  Rx     18FF2CF3  8  08 3C 0C C3 F0 FF 64 08 
   333)      9962.8  Rx     0CFF0013  8  86 3D 00 00 00 80 04 00 
   334)      9970.4  Rx     0CF00400  8  FF 7D 7D 00 00 FF 00 FF 
   335)      9971.4  Rx     18FF2EF3  8  00 00 00 00 44 05 96 03 
   336)      9971.8  Rx     18FEBF0B  8  FF FF FF FF FF FF FF FF 
   337)      9972.7  Rx     18FFB5D8  8  00 00 00 00 8A 00 00 00 
   338)      9974.5  Rx     18FFC821  8  FF FF FF FF F8 FF FF FF 
   339)      9981.4  Rx     18FF32F3  8  06 14 10 27 DD 4C 2A 00 
   340)      9984.5  Rx     18FF7005  8  F0 D0 FF FF 4F FF FC 01 
   341)      9990.5  Rx     0C0228D0  8  00 00 00 00 02 00 27 28 
   342)      9990.9  Rx     0CF00400  8  FF 7D 7D 00 00 FF 00 FF 
   343)      9991.2  Rx     0CFE6CEE  8  FF FF FF FF FF FF 00 00 
   344)      9991.6  Rx     0CFF04D0  8  00 00 00 00 00 00 00 07 
   345)      9991.9  Rx     0CFF0AD0  8  00 00 00 00 FF 00 0C 07 
   346)      9992.6  Rx     18FFB5D8  8  00 00 00 00 8A 00 00 00 
   347)      9994.0  Rx     18FFCE21  8  82 C0 00 00 FF FF 00 FF 
   348)      9994.4  Rx     0C010305  8  FF FF 7D FF FF BC FF 37 
   349)      9994.9  Rx     18FE1264  8  2B 00 8A 02 00 04 1A 18 
   350)      9995.2  Rx     1802DAD0  8  00 FF FF FF FF 00 00 07 
   351)      9995.5  Rx     18FE0621  8  00 00 00 00 00 00 00 00 
   352)      9995.8  Rx     18FE64EF  8  00 00 00 00 00 00 00 00 
   353)      9996.2  Rx     18FE74D0  8  00 00 00 00 00 00 00 00 
   354)      9996.5  Rx     1C01CE21  8  00 00 01 15 27 00 FF FF 
   355)      9996.8  Rx     18FEF100  8  00 FF FF 00 FF FF FF FF 
   356)      9997.1  Rx     18FF0BD0  8  FF FF 20 4E 00 FF FF 97 
   357)      9997.5  Rx     18FF0CD0  8  68 E0 00 00 00 00 90 01 
   358)      9997.8  Rx     18FF0ED0  8  FD 7F FD 7F FF 02 60 00 
   359)      9998.2  Rx     18FF0FEF  8  25 00 00 00 00 00 00 00 
   360)      9998.5  Rx     18FF10EF  8  00 28 27 20 4E 20 4E 12 
   361)      9998.9  Rx     18FF1EEF  8  00 19 00 10 27 00 00 01 
   362)     10010.4  Rx     0CF00400  8  FF 7D 7D 00 00 FF 00 FF 
   363)     10012.6  Rx     18FFB5D8  8  00 00 00 00 8B 00 00 00 
   364)     10021.8  Rx     18F0010B  8  CF FF 30 FF FF 5D FF FF 
   365)     10022.1  Rx     18FEBF0B  8  FF FF FF FF FF FF FF FF 
   366)     10024.3  Rx     18FFC821  8  FF FF FF FF F8 FF FF FF 
   367)     10030.4  Rx     0CF00400  8  FF 7D 7D 00 00 FF 00 FF 
   368)     10033.0  Rx     18FFB5D8  8  00 00 00 00 8B 00 00 00 
   369)     10034.5  Rx     18FF7005  8  F0 D0 FF FF 4F FF FC 01 
   370)     10040.4  Rx     0CFE6CEE  8  FF FF FF FF FF FF 00 00 
   371)     10044.4  Rx     0C010305  8  FF FF 7D FF FF BC FF 30 
   372)     10047.8  Rx     18FFBE28  8  BD 11 00 00 00 00 04 34 
   373)     10048.1  Rx     18FFBF28  8  00 00 8B 00 40 06 00 00 
   374)     10050.4  Rx     0CF00400  8  FF 7D 7D 00 00 FF 00 FF 
   375)     10053.0  Rx     18FFB5D8  8  00 00 00 00 8A 00 00 00 
   376)     10062.6  Rx     18FF2CF3  8  08 3C 0C C3 F0 FF 64 09 
   377)     10062.9  Rx     18FF2DF3  8  F2 06 14 10 27 1C BF 54 
   378)     10063.2  Rx     18FF2FF3  8  00 00 AD 01 00 00 1F FF 
   379)     10063.5  Rx     18FF33F3  8  D7 0C D6 0C D5 0C D6 0C 
   380)     10063.8  Rx     18FF98F3  8  27 27 27 27 27 27 27 27 
   381)     10067.8  Rx     0CFF0013  8  86 3D 00 00 00 81 04 00 
   382)     10070.4  Rx     0CF00400  8  FF 7D 7D 00 00 FF 00 FF 
   383)     10071.4  Rx     18FF2EF3  8  00 00 00 00 44 05 96 03 
   384)     10071.7  Rx     18FF30F3  8  81 02 D8 0C 61 02 D4 0C 
   385)     10072.0  Rx     18FEBF0B  8  FF FF FF FF FF FF FF FF 
   386)     10072.3  Rx     1801D0F9  8  00 00 00 00 00 00 00 00 
   387)     10072.6  Rx     18FF34F3  8  D6 0C D6 0C D6 0C D6 0C 
   388)     10072.9  Rx     18FFB5D8  8  00 00 00 00 8A 00 00 00 
   389)     10074.2  Rx     18FFC821  8  FF FF FF FF F8 FF FF FF 
   390)     10081.4  Rx     18FF31F3  8  B1 00 28 11 00 27 FF FF 
   391)     10081.7  Rx     18FF32F3  8  06 14 10 27 DD 4C 2A 00 
   392)     10082.0  Rx     18FFEAF3  8  9C 00 12 00 00 00 B2 00 
   393)     10082.3  Rx     18FF35F3  8  D6 0C D6 0C D5 0C D5 0C 
   394)     10082.6  Rx     18FF99F3  8  27 27 28 27 27 27 28 28 
   395)     10084.5  Rx     18FF7005  8  F0 D0 FF FF 4F FF FC 01 
   396)     10090.6  Rx     0C0228D0  8  00 00 00 00 02 00 27 28 
   397)     10090.9  Rx     0CF00400  8  FF 7D 7D 00 00 FF 00 FF 
   398)     10091.3  Rx     0CFE6CEE  8  FF FF FF FF FF FF 00 00 
   399)     10091.5  Rx     18FFEBF3  8  01 48 56 33 45 41 2D 2D 
   400)     10091.8  Rx     0CFF04D0  8  00 00 00 00 00 00 00 08 
   401)     10092.1  Rx     18FF36F3  8  D5 0C D7 0C D6 0C D5 0C 
   402)     10092.4  Rx     0CFF0AD0  8  00 00 00 00 FF 00 0C 08 
   403)     10092.7  Rx     18FFB5D8  8  00 00 00 00 8A 00 00 00 
   404)     10094.5  Rx     0C010305  8  FF FF 7D FF FF BC FF 41 
   405)     10095.1  Rx     18FE1264  8  2B 00 8A 02 00 04 1A 18 
   406)     10095.4  Rx     1802DAD0  8  00 FF FF FF FF 00 00 08 
   407)     10095.8  Rx     18FE64EF  8  00 00 00 00 00 00 00 00 
   408)     10096.1  Rx     18FE74D0  8  00 00 00 00 00 00 00 00 
   409)     10096.5  Rx     18FEF100  8  00 FF FF 00 FF FF FF FF 
   410)     10096.8  Rx     18FF0BD0  8  FF FF 20 4E 00 FF FF A8 
   411)     10097.2  Rx     18FF0CD0  8  68 00 00 00 00 00 90 01 
   412)     10097.5  Rx     18FF0ED0  8  FD 7F FD 7F FF 02 60 00 
   413)     10097.8  Rx     18FFCE21  8  82 C0 00 00 FF FF 00 FF 
   414)     10098.1  Rx     18FF0FEF  8  27 00 00 00 00 00 00 00 
   415)     10098.4  Rx     18FF10EF  8  00 28 27 20 4E 20 4E 12 
   416)     10098.8  Rx     18FF1EEF  8  00 19 00 10 27 00 00 01 
   417)     10099.1  Rx     18FE0621  8  00 00 00 00 00 00 00 00 
   418)     10100.3  Rx     1C01CE21  8  00 00 01 15 27 00 FF FF 
   419)     10101.4  Rx     18FFECF3  8  43 45 42 2D 42 37 30 48 
   420)     10101.7  Rx     18FF37F3  8  D6 0C D6 0C D5 0C D5 0C 
   421)     10102.0  Rx     18FF9AF3  8  28 27 FF FF FF FF FF FF 
   422)     10110.4  Rx     0CF00400  8  FF 7D 7D 00 00 FF 00 FF 
   423)     10111.4  Rx     18FF38F3  8  D5 0C D6 0C D5 0C D5 0C 
   424)     10112.2  Rx     18FFB8D8  8  00 00 00 00 00 00 00 00 
   425)     10113.0  Rx     18FFB5D8  8  00 00 00 00 8A 00 00 00 
   426)     10114.2  Rx     18FFB9D8  8  00 00 25 08 00 00 28 03 
   427)     10121.4  Rx     18FF39F3  8  D5 0C D5 0C D6 0C D6 0C 
   428)     10121.8  Rx     18F0010B  8  CF FF 30 FF FF 5D FF FF 
   429)     10122.1  Rx     18FEBF0B  8  FF FF FF FF FF FF FF FF 
   430)     10124.2  Rx     18FFC821  8  FF FF FF FF F8 FF FF FF 
   431)     10130.4  Rx     0CF00400  8  FF 7D 7D 00 00 FF 00 FF 
   432)     10131.4  Rx     18FF3AF3  8  D5 0C D6 0C D6 0C D5 0C 
   433)     10133.0  Rx     18FFB5D8  8  00 00 00 00 8A 00 00 00 
   434)     10134.1  Rx     18FFBBD8  8  00 00 00 00 00 00 00 00 
   435)     10134.5  Rx     18FF7005  8  F0 D0 FF FF 4F FF FC 01 
   436)     10136.1  Rx     18FFBCD8  8  00 00 23 08 00 00 28 03 
   437)     10140.5  Rx     0CFE6CEE  8  FF FF FF FF FF FF 00 00 
   438)     10141.4  Rx     18FF3BF3  8  D5 0C D5 0C D5 0C D5 0C 
   439)     10144.5  Rx     0C010305  8  FF FF 7D FF FF BC FF 52 
   440)     10150.4  Rx     0CF00400  8  FF 7D 7D 00 00 FF 00 FF 
   441)     10151.5  Rx     18FF3CF3  8  D5 0C D4 0C D5 0C D8 0C 
   442)     10153.0  Rx     18FFB5D8  8  00 00 00 00 8A 00 00 00 
   443)     10162.6  Rx     18FF2CF3  8  08 3C 0C C3 F0 FF 64 0A 
   444)     10162.9  Rx     18FF3DF3  8  D6 0C D6 0C D6 0C D6 0C 
   445)     10167.9  Rx     18FECA13  8  00 00 00 00 00 00 00 00 
   446)     10168.2  Rx     0CFF0013  8  86 3D 00 00 00 81 04 00 
   447)     10168.5  Rx     18FFEB13  8  01 48 56 33 45 2D 2D 4C 
   448)     10170.5  Rx     0CF00400  8  FF 7D 7D 00 00 FF 00 FF 
   449)     10171.4  Rx     18FF2EF3  8  00 00 00 00 44 05 96 03 
   450)     10171.7  Rx     18FF3EF3  8  D6 0C D6 0C D6 0C D6 0C 
   451)     10172.0  Rx     18FEBF0B  8  FF FF FF FF FF FF FF FF 
   452)     10172.7  Rx     18FFB5D8  8  00 00 00 00 8A 00 00 00 
   453)     10174.4  Rx     18FFC821  8  FF FF FF FF F8 FF FF FF 
   454)     10180.5  Rx     0CFFC1D0  8  00 EA 01 00 00 00 08 2D 
   455)     10180.9  Rx     18FEF500  8  64 00 00 DC 21 00 00 00 
   456)     10181.2  Rx     18FF03FD  8  00 00 00 00 00 00 00 FF 
   457)     10181.5  Rx     18FF32F3  8  06 14 10 27 DD 4C 2A 00 
   458)     10181.8  Rx     18FF0DD0  8  51 01 00 00 00 0C D0 07 
   459)     10182.1  Rx     18FF3FF3  8  D6 0C D5 0C D5 0C D4 0C 
   460)     10182.3  Rx     18FFDBEF  8  01 48 56 33 45 2D 2D 4C 
   461)     10184.5  Rx     18FF7005  8  F0 D0 FF FF 4F FF FC 01 
   462)     10190.7  Rx     0C0228D0  8  00 00 00 00 02 00 27 28 
   463)     10191.0  Rx     0CF00400  8  FF 7D 7D 00 00 FF 00 FF 
   464)     10191.4  Rx     0CFE6CEE  8  FF FF FF FF FF FF 00 00 
   465)     10191.7  Rx     18FF40F3  8  D7 0C D6 0C D6 0C D6 0C 
   466)     10192.0  Rx     0CFF04D0  8  00 00 00 00 00 00 00 09 
   467)     10193.0  Rx     18FFB5D8  8  00 00 00 00 8A 00 00 00 
   468)     10194.5  Rx     0C010305  8  FF FF 7D FF FF BC FF 63 
   469)     10195.1  Rx     18FE1264  8  2B 00 8A 02 00 04 1A 18 
   470)     10195.3  Rx     0CFF0AD0  8  00 00 00 00 FF 00 0C 09 
   471)     10195.7  Rx     1802DAD0  8  00 FF FF FF FF 00 00 09 
   472)     10196.0  Rx     18FE64EF  8  00 00 00 00 00 00 00 00 
   473)     10196.4  Rx     18FE74D0  8  00 00 00 00 00 00 00 00 
   474)     10196.7  Rx     18FEF100  8  00 FF FF 00 FF FF FF FF 
   475)     10197.0  Rx     18FF0BD0  8  FF FF 20 4E 00 FF FF B9 
   476)     10197.4  Rx     18FF0CD0  8  68 20 00 00 00 00 90 01 
   477)     10197.7  Rx     18FF0ED0  8  FD 7F FD 7F FF 02 60 00 
   478)     10198.1  Rx     18FF0FEF  8  21 00 00 00 00 00 00 00 
   479)     10198.4  Rx     18FF10EF  8  00 28 27 20 4E 20 4E 12 
   480)     10198.7  Rx     18FFCE21  8  82 C0 00 00 FF FF 00 FF 
   481)     10199.0  Rx     18FF1EEF  8  00 1A 00 10 27 00 00 01 
   482)     10199.3  Rx     18FE0621  8  00 00 00 00 00 00 00 00 
   483)     10200.5  Rx     1809F9D0  8  02 43 55 32 45 56 31 32 
   484)     10200.8  Rx     1C01CE21  8  00 00 01 15 27 00 FF FF 
   485)     10201.4  Rx     18FF41F3  8  D6 0C D6 0C D6 0C D6 0C 
   486)     10210.5  Rx     0CF00400  8  FF 7D 7D 00 00 FF 00 FF 
   487)     10211.4  Rx     18FF42F3  8  D6 0C D6 0C D6 0C D5 0C 
   488)     10213.0  Rx     18FFB5D8  8  00 00 00 00 8A 00 00 00 
   489)     10221.3  Rx     18FFF955  8  FF 4D 8C 00 00 0F 0B 00 
   490)     10221.6  Rx     18FF43F3  8  D6 0C D7 0C D6 0C D6 0C 
   491)     10221.9  Rx     18F0010B  8  CF FF 30 FF FF 5D FF FF 
   492)     10222.2  Rx     18FFB7D8  8  00 00 00 00 00 00 00 00 
   493)     10222.5  Rx     18FEBF0B  8  FF FF FF FF FF FF FF FF 
   494)     10223.0  Rx     18FFB6D8  8  00 00 26 08 00 00 00 00 
   495)     10224.4  Rx     18FFC821  8  FF FF FF FF F8 FF FF FF 
   496)     10230.5  Rx     0CF00400  8  FF 7D 7D 00 00 FF 00 FF 
   497)     10231.4  Rx     18FF44F3  8  D6 0C D6 0C D5 0C D6 0C 
   498)     10233.0  Rx     18FFB5D8  8  00 00 00 00 8A 00 00 00 
   499)     10234.5  Rx     18FF7005  8  F0 D0 FF FF 4F FF FC 01 
   500)     10240.1  Rx     18FFDFD8  8  02 30 30 30 33 34 36 4F 
   501)     10240.6  Rx     0CFE6CEE  8  FF FF FF FF FF FF 00 00 
   502)     10241.4  Rx     18FF45F3  8  D5 0C D5 0C D5 0C D5 0C 
   503)     10244.5  Rx     0C010305  8  FF FF 7D FF FF BC FF 74 
   504)     10250.5  Rx     0CF00400  8  FF 7D 7D 00 00 FF 00 FF 
   505)     10251.4  Rx     18FF46F3  8  D5 0C D5 0C D7 0C D6 0C 
   506)     10253.1  Rx     18FFB5D8  8  00 00 00 00 8A 00 00 00 
   507)     10262.1  Rx     18FFE0D8  8  02 30 30 30 32 35 36 4F 
   508)     10262.6  Rx     18FF2CF3  8  08 3C 0C C3 F0 FF 64 0B 
   509)     10262.9  Rx     18FF47F3  8  D6 0C D6 0C D6 0C D6 0C 
   510)     10268.0  Rx     0CFF0013  8  86 3D 00 00 00 81 04 00 
   511)     10270.5  Rx     0CF00400  8  FF 7D 7D 00 00 FF 00 FF 
   512)     10271.4  Rx     18FF2EF3  8  00 00 00 00 44 05 96 03 
   513)     10271.7  Rx     18FF48F3  8  D6 0C D6 0C D6 0C D6 0C 
   514)     10272.0  Rx     18FEBF0B  8  FF FF FF FF FF FF FF FF 
   515)     10273.1  Rx     18FFB5D8  8  00 00 00 00 8A 00 00 00 
   516)     10274.4  Rx     18FFC821  8  FF FF FF FF F8 FF FF FF 
   517)     10281.4  Rx     18FF32F3  8  06 14 10 27 DD 4C 2A 00 
   518)     10281.7  Rx     18FF49F3  8  D5 0C D5 0C D5 0C D7 0C 
   519)     10283.1  Rx     18FFDED8  8  02 30 31 30 33 34 33 72 
   520)     10284.5  Rx     18FF7005  8  F0 D0 FF FF 4F FF FC 01 
   521)     10290.1  Rx     18FFDDD8  8  02 30 31 30 33 35 36 4F 
   522)     10290.8  Rx     0C0228D0  8  00 00 00 00 02 00 27 28 
   523)     10291.1  Rx     0CF00400  8  FF 7D 7D 00 00 FF 00 FF 
   524)     10291.4  Rx     18FF4AF3  8  D6 0C D5 0C D6 0C D6 0C 
   525)     10291.7  Rx     0CFE6CEE  8  FF FF FF FF FF FF 00 00 
   526)     10292.1  Rx     0CFF04D0  8  00 00 00 00 00 00 00 0A 
   527)     10293.1  Rx     18FFB5D8  8  00 00 00 00 8A 00 00 00 
   528)     10294.5  Rx     0C010305  8  FF FF 7D FF FF BC FF 05 
   529)     10295.1  Rx     18FE1264  8  2B 00 8A 02 00 04 19 18 
   530)     10295.4  Rx     0CFF0AD0  8  00 00 00 00 FF 00 0C 0A 
   531)     10295.7  Rx     1802DAD0  8  00 FF FF FF FF 00 00 0A 
   532)     10296.0  Rx     18FE64EF  8  00 00 00 00 00 00 00 00 
   533)     10296.4  Rx     18FE74D0  8  00 00 00 00 00 00 00 00 
   534)     10296.7  Rx     18FEF100  8  00 FF FF 00 FF FF FF FF 
   535)     10297.1  Rx     18FF0BD0  8  FF FF 20 4E 00 FF FF CA 
   536)     10297.4  Rx     18FF0CD0  8  68 40 00 00 00 00 90 01 
   537)     10297.7  Rx     18FF0ED0  8  FD 7F FD 7F FF 02 60 00 
   538)     10298.0  Rx     18FFCE21  8  82 C0 00 00 FF FF 00 FF 
   539)     10298.3  Rx     18FF0FEF  8  23 00 00 00 00 00 00 00 
   540)     10298.7  Rx     18FF10EF  8  00 28 27 20 4E 20 4E 12 
   541)     10299.1  Rx     18FF1EEF  8  00 1A 00 10 27 00 00 01 
   542)     10299.3  Rx     18FE0621  8  00 00 00 00 00 00 00 00 
   543)     10300.6  Rx     1C01CE21  8  00 00 01 15 27 00 FF FF 
   544)     10301.4  Rx     18FF4BF3  8  D5 0C D6 0C D5 0C D5 0C 
   545)     10310.6  Rx     0CF00400  8  FF 7D 7D 00 00 FF 00 FF 
   546)     10311.4  Rx     18FF4CF3  8  D5 0C D5 0C D4 0C D5 0C 
   547)     10313.1  Rx     18FFB5D8  8  00 00 00 00 8A 00 00 00 
   548)     10321.4  Rx     18FF4DF3  8  D7 0C D6 0C D5 0C D5 0C 
   549)     10321.9  Rx     18F0010B  8  CF FF 30 FF FF 5D FF FF 
   550)     10322.2  Rx     18FEBF0B  8  FF FF FF FF FF FF FF FF 
   551)     10323.8  Rx     18FFDDD8  8  02 30 31 30 33 35 36 4F 
   552)     10324.4  Rx     18FFC821  8  FF FF FF FF F8 FF FF FF 
   553)     10330.6  Rx     0CF00400  8  FF 7D 7D 00 00 FF 00 FF 
   554)     10331.4  Rx     18FF4EF3  8  D5 0C D5 0C D6 0C D6 0C 
   555)     10333.0  Rx     18FFB5D8  8  00 00 00 00 8A 00 00 00 
   556)     10334.5  Rx     18FF7005  8  F0 D0 FF FF 4F FF FC 01 
   557)     10340.6  Rx     0CFE6CEE  8  FF FF FF FF FF FF 00 00 
   558)     10341.4  Rx     18FF4FF3  8  D6 0C D5 0C D5 0C D5 0C 
   559)     10344.5  Rx     0C010305  8  FF FF 7D FF FF BC FF 16 
   560)     10350.6  Rx     0CF00400  8  FF 7D 7D 00 00 FF 00 FF 
   561)     10351.5  Rx     18FF50F3  8  D5 0C D7 0C D6 0C D6 0C 
   562)     10353.1  Rx     18FFB5D8  8  00 00 00 00 8A 00 00 00 
   563)     10362.5  Rx     18FF2CF3  8  08 3C 0C C3 F0 FF 64 0C 
   564)     10362.8  Rx     18FF51F3  8  D6 0C D6 0C D6 0C D6 0C 
   565)     10368.1  Rx     0CFF0013  8  86 3D 00 00 00 81 04 00 
   566)     10370.6  Rx     0CF00400  8  FF 7D 7D 00 00 FF 00 FF 
   567)     10371.5  Rx     18FF2EF3  8  00 00 00 00 44 05 96 03 
   568)     10371.8  Rx     18FF52F3  8  D6 0C D6 0C D6 0C D5 0C 
   569)     10372.1  Rx     18FEBF0B  8  FF FF FF FF FF FF FF FF 
   570)     10373.1  Rx     18FFB5D8  8  00 00 00 00 8A 00 00 00 
   571)     10374.4  Rx     18FFC821  8  FF FF FF FF F8 FF FF FF 
   572)     10381.4  Rx     18FF32F3  8  06 14 10 27 DD 4C 2A 00 
   573)     10381.7  Rx     18FF53F3  8  D5 0C D5 0C D6 0C D6 0C 
   574)     10384.3  Rx     18FF7005  8  F0 D0 FF FF 4F FF FC 01 
   575)     10390.8  Rx     0C0228D0  8  00 00 00 00 02 00 27 28 
   576)     10391.1  Rx     0CF00400  8  FF 7D 7D 00 00 FF 00 FF 
   577)     10391.4  Rx     0CFE6CEE  8  FF FF FF FF FF FF 00 00 
   578)     10391.7  Rx     18FF54F3  8  D5 0C D6 0C D6 0C D6 0C 
   579)     10392.0  Rx     0CFF04D0  8  00 00 00 00 00 00 00 0B 
   580)     10392.4  Rx     0CFF0AD0  8  00 00 00 00 FF 00 0C 0B 
   581)     10393.1  Rx     18FFB5D8  8  00 00 00 00 8A 00 00 00 
   582)     10394.5  Rx     0C010305  8  FF FF 7D FF FF BC FF 37 
   583)     10395.1  Rx     18FE1264  8  2B 00 8A 02 00 04 1A 18 
   584)     10395.4  Rx     1802DAD0  8  00 FF FF FF FF 00 00 0B 
   585)     10395.7  Rx     18FE64EF  8  00 00 00 00 00 00 00 00 
   586)     10396.0  Rx     18FE74D0  8  00 00 00 00 00 00 00 00 
   587)     10396.4  Rx     18FEF100  8  00 FF FF 00 FF FF FF FF 
   588)     10396.7  Rx     18FF0BD0  8  FF FF 20 4E 00 FF FF DB 
   589)     10397.1  Rx     18FF0CD0  8  68 60 00 00 00 00 90 01 
   590)     10397.4  Rx     18FF0ED0  8  FD 7F FD 7F FF 02 60 00 
   591)     10397.7  Rx     18FF0FEF  8  25 00 00 00 00 00 00 00 
   592)     10398.1  Rx     18FF10EF  8  00 28 27 20 4E 20 4E 12 
   593)     10398.4  Rx     18FF1EEF  8  00 1C 00 10 27 00 00 01 
   594)     10399.0  Rx     18FFCE21  8  82 C0 00 00 FF FF 00 FF 
   595)     10400.1  Rx     18FE0621  8  00 00 00 00 00 00 00 00 
   596)     10400.9  Rx     1C01CE21  8  00 00 01 15 27 00 FF FF 
   597)     10401.4  Rx     18FF55F3  8  D6 0C D6 0C D6 0C D5 0C 
   598)     10410.6  Rx     0CF00400  8  FF 7D 7D 00 00 FF 00 FF 
   599)     10411.4  Rx     18FF56F3  8  D5 0C D5 0C D5 0C D7 0C 
   600)     10412.2  Rx     18FFB8D8  8  00 00 00 00 00 00 00 00 
   601)     10413.1  Rx     18FFB5D8  8  00 00 00 00 89 00 00 00 
   602)     10414.2  Rx     18FFB9D8  8  00 00 25 08 00 00 28 04 
   603)     10421.4  Rx     18FF57F3  8  D5 0C D5 0C D5 0C D5 0C 
   604)     10421.9  Rx     18F0010B  8  CF FF 30 FF FF 5D FF FF 
   605)     10422.2  Rx     18FEBF0B  8  FF FF FF FF FF FF FF FF 
   606)     10424.5  Rx     18FFC821  8  FF FF FF FF F8 FF FF FF 
   607)     10425.0  Rx     18FFEB64  8  01 48 56 33 45 2D 2D 59 
   608)     10430.6  Rx     0CF00400  8  FF 7D 7D 00 00 FF 00 FF 
   609)     10431.4  Rx     18FF58F3  8  D5 0C D6 0C D6 0C D6 0C 
   610)     10433.1  Rx     18FFB5D8  8  00 00 00 00 8A 00 00 00 
   611)     10434.1  Rx     18FFBBD8  8  00 00 00 00 00 00 00 00 
   612)     10434.4  Rx     18FF7005  8  F0 D0 FF FF 4F FF FC 01 
   613)     10436.1  Rx     18FFBCD8  8  00 00 23 08 00 00 28 04 
   614)     10440.7  Rx     0CFE6CEE  8  FF FF FF FF FF FF 00 00 
   615)     10441.4  Rx     18FF59F3  8  D5 0C D5 0C D5 0C D5 0C 
   616)     10444.5  Rx     0C010305  8  FF FF 7D FF FF BC FF 30 
   617)     10450.6  Rx     0CF00400  8  FF 7D 7D 00 00 FF 00 FF 
   618)     10453.1  Rx     18FFB5D8  8  00 00 00 00 8A 00 00 00 
   619)     10462.4  Rx     18FF2CF3  8  08 3C 0C C3 F0 FF 64 0D 
   620)     10468.2  Rx     0CFF0013  8  86 3D 00 00 00 81 04 00 
   621)     10470.7  Rx     0CF00400  8  FF 7D 7D 00 00 FF 00 FF 
   622)     10471.4  Rx     18FF2EF3  8  00 00 00 00 44 05 96 03 
   623)     10471.9  Rx     18FEBF0B  8  FF FF FF FF FF FF FF FF 
   624)     10473.1  Rx     18FFB5D8  8  00 00 00 00 8A 00 00 00 
   625)     10474.5  Rx     18FFC821  8  FF FF FF FF F8 FF FF FF 
   626)     10481.4  Rx     18FF32F3  8  06 14 10 27 DD 4C 2A 00 
   627)     10484.2  Rx     18FF7005  8  F0 D0 FF FF 4F FF FC 01 
   628)     10490.8  Rx     0C0228D0  8  00 00 00 00 02 00 27 28 
   629)     10491.2  Rx     0CF00400  8  FF 7D 7D 00 00 FF 00 FF 
   630)     10491.5  Rx     0CFE6CEE  8  FF FF FF FF FF FF 00 00 
   631)     10491.9  Rx     0CFF04D0  8  00 00 00 00 00 00 00 0C 
   632)     10492.2  Rx     0CFF0AD0  8  00 00 00 00 FF 00 0C 0C 
   633)     10493.1  Rx     18FFB5D8  8  00 00 00 00 8A 00 00 00 
   634)     10494.5  Rx     0C010305  8  FF FF 7D FF FF BC FF 41 
   635)     10495.1  Rx     18FE1264  8  2B 00 8A 02 00 04 1A 18 
   636)     10495.4  Rx     1802DAD0  8  00 FF FF FF FF 00 00 0C 
   637)     10495.7  Rx     18FE64EF  8  00 00 00 00 00 00 00 00 
   638)     10496.0  Rx     18FE74D0  8  00 00 00 00 00 00 00 00 
   639)     10496.4  Rx     18FEF100  8  00 FF FF 00 FF FF FF FF 
   640)     10496.7  Rx     18FF0BD0  8  FF FF 20 4E 00 FF FF EC 
   641)     10497.1  Rx     18FF0CD0  8  68 80 00 00 00 00 90 01 
   642)     10497.4  Rx     18FF0ED0  8  FD 7F FD 7F FF 02 60 00 
   643)     10497.8  Rx     18FF0FEF  8  27 00 00 00 00 00 00 00 
   644)     10498.1  Rx     18FF10EF  8  00 28 27 20 4E 20 4E 12 
   645)     10498.4  Rx     18FF1EEF  8  00 1B 00 10 27 00 00 01 
   646)     10498.7  Rx     18FFCE21  8  82 C0 00 00 FF FF 00 FF 
   647)     10499.4  Rx     18FE0621  8  00 00 00 00 00 00 00 00 
   648)     10500.7  Rx     1C01CE21  8  00 00 01 15 27 00 FF FF 
   649)     10505.8  Rx     18FECA64  8  C3 FF 00 00 00 00 00 00 
   650)     10510.7  Rx     0CF00400  8  FF 7D 7D 00 00 FF 00 FF 
   651)     10513.1  Rx     18FFB5D8  8  00 00 00 00 89 00 00 00 
   652)     10521.9  Rx     18F0010B  8  CF FF 30 FF FF 5D FF FF 
   653)     10522.2  Rx     18FFB7D8  8  00 00 00 00 00 00 00 00 
   654)     10522.5  Rx     18FEBF0B  8  FF FF FF FF FF FF FF FF 
   655)     10524.5  Rx     18FFC821  8  FF FF FF FF F8 FF FF FF 
   656)     10530.7  Rx     0CF00400  8  FF 7D 7D 00 00 FF 00 FF 
   657)     10533.1  Rx     18FFB5D8  8  00 00 00 00 8A 00 00 00 
   658)     10534.2  Rx     18FF7005  8  F0 D0 FF FF 4F FF FC 01 
   659)     10540.7  Rx     0CFE6CEE  8  FF FF FF FF FF FF 00 00 
   660)     10544.5  Rx     0C010305  8  FF FF 7D FF FF BC FF 52 
   661)     10547.8  Rx     18FFBE28  8  BD 11 00 00 00 00 04 35 
   662)     10548.1  Rx     18FFBF28  8  00 00 8A 00 40 06 00 00 
   663)     10550.7  Rx     0CF00400  8  FF 7D 7D 00 00 FF 00 FF 
   664)     10553.1  Rx     18FFB5D8  8  00 00 00 00 89 00 00 00 
   665)     10562.4  Rx     18FF2CF3  8  08 3C 0C C3 F0 FF 64 0E 
   666)     10562.7  Rx     18FF2DF3  8  F2 06 14 10 27 1C BF 54 
   667)     10568.4  Rx     0CFF0013  8  86 3D 00 00 00 81 04 00 
   668)     10570.8  Rx     0CF00400  8  FF 7D 7D 00 00 FF 00 FF 
   669)     10571.4  Rx     18FF2EF3  8  00 00 00 00 44 05 96 03 
   670)     10571.7  Rx     18FF30F3  8  81 02 D8 0C 61 02 D4 0C 
   671)     10572.0  Rx     18FEBF0B  8  FF FF FF FF FF FF FF FF 
   672)     10573.1  Rx     18FFB5D8  8  00 00 00 00 8A 00 00 00 
   673)     10574.4  Rx     18FFC821  8  FF FF FF FF F8 FF FF FF 
   674)     10581.4  Rx     18FF31F3  8  B1 00 28 11 00 27 FF FF 
   675)     10581.7  Rx     18FF32F3  8  06 14 10 27 DD 4C 2A 00 
   676)     10584.2  Rx     18FF7005  8  F0 D0 FF FF 4F FF FC 01 
   677)     10590.9  Rx     0C0228D0  8  00 00 00 00 02 00 27 28 
   678)     10591.3  Rx     0CF00400  8  FF 7D 7D 00 00 FF 00 FF 
   679)     10591.6  Rx     0CFE6CEE  8  FF FF FF FF FF FF 00 00 
   680)     10592.0  Rx     0CFF04D0  8  00 00 00 00 00 00 00 0D 
   681)     10592.3  Rx     0CFF0AD0  8  00 00 00 00 FF 00 0C 0D 
   682)     10593.2  Rx     18FFB5D8  8  00 00 00 00 89 00 00 00 
   683)     10594.5  Rx     0C010305  8  FF FF 7D FF FF BC FF 63 
   684)     10594.9  Rx     18FE1264  8  2B 00 8A 02 00 04 19 18 
   685)     10595.5  Rx     1802DAD0  8  00 FF FF FF FF 00 00 0D 
   686)     10595.8  Rx     18FE64EF  8  00 00 00 00 00 00 00 00 
   687)     10596.2  Rx     18FE74D0  8  00 00 00 00 00 00 00 00 
   688)     10596.5  Rx     18FEF100  8  00 FF FF 00 FF FF FF FF 
   689)     10596.9  Rx     18FF0BD0  8  FF FF 20 4E 00 FF FF FD 
   690)     10597.2  Rx     18FF0CD0  8  68 A0 00 00 00 00 90 01 
   691)     10597.5  Rx     18FF0ED0  8  FD 7F FD 7F FF 02 60 00 
   692)     10597.8  Rx     18FFCE21  8  82 C0 00 00 FF FF 00 FF 
   693)     10598.1  Rx     18FF0FEF  8  21 00 00 00 00 00 00 00 
   694)     10598.5  Rx     18FF10EF  8  00 28 27 20 4E 20 4E 12 
   695)     10598.9  Rx     18FF1EEF  8  00 1C 00 10 27 00 00 01 
   696)     10599.2  Rx     18FE0621  8  00 00 00 00 00 00 00 00 
   697)     10600.4  Rx     1C01CE21  8  00 00 01 15 27 00 FF FF 
   698)     10610.8  Rx     0CF00400  8  FF 7D 7D 00 00 FF 00 FF 
   699)     10613.2  Rx     18FFB5D8  8  00 00 00 00 89 00 00 00 
   700)     10622.0  Rx     18F0010B  8  CF FF 30 FF FF 5D FF FF 
   701)     10622.3  Rx     18FEBF0B  8  FF FF FF FF FF FF FF FF 
   702)     10624.4  Rx     18FFC821  8  FF FF FF FF F8 FF FF FF 
   703)     10630.7  Rx     0CF00400  8  FF 7D 7D 00 00 FF 00 FF 
   704)     10633.1  Rx     18FFB5D8  8  00 00 00 00 8A 00 00 00 
   705)     10634.5  Rx     18FF7005  8  F0 D0 FF FF 4F FF FC 01 
   706)     10640.8  Rx     0CFE6CEE  8  FF FF FF FF FF FF 00 00 
   707)     10644.5  Rx     0C010305  8  FF FF 7D FF FF BC FF 74 
   708)     10650.8  Rx     0CF00400  8  FF 7D 7D 00 00 FF 00 FF 
   709)     10653.1  Rx     18FFB5D8  8  00 00 00 00 89 00 00 00 
   710)     10662.4  Rx     18FF2CF3  8  08 3C 0C C3 F0 FF 64 0F 
   711)     10668.4  Rx     0CFF0013  8  86 3D 00 00 00 81 04 00 
   712)     10670.8  Rx     0CF00400  8  FF 7D 7D 00 00 FF 00 FF 
   713)     10671.4  Rx     18FF2EF3  8  00 00 00 00 44 05 96 03 
   714)     10672.0  Rx     18FEBF0B  8  FF FF FF FF FF FF FF FF 
   715)     10673.2  Rx     18FFB5D8  8  00 00 00 00 8A 00 00 00 
   716)     10674.3  Rx     18FFC821  8  FF FF FF FF F8 FF FF FF 
   717)     10680.8  Rx     0CFFC1D0  8  00 EA 01 00 00 00 08 2D 
   718)     10681.2  Rx     18FF0DD0  8  51 01 00 00 00 0C D0 07 
   719)     10681.4  Rx     18FF32F3  8  06 14 10 27 DD 4C 2A 00 
   720)     10684.5  Rx     18FF7005  8  F0 D0 FF FF 4F FF FC 01 
   721)     10691.0  Rx     0C0228D0  8  00 00 00 00 02 00 27 28 
   722)     10691.3  Rx     0CF00400  8  FF 7D 7D 00 00 FF 00 FF 
   723)     10691.7  Rx     0CFE6CEE  8  FF FF FF FF FF FF 00 00 
   724)     10692.0  Rx     0CFF04D0  8  00 00 00 00 00 00 00 0E 
   725)     10692.4  Rx     0CFF0AD0  8  00 00 00 00 FF 00 0C 0E 
   726)     10693.2  Rx     18FFB5D8  8  00 00 00 00 89 00 00 00 
   727)     10694.4  Rx     0C010305  8  FF FF 7D FF FF BC FF 05 
   728)     10694.9  Rx     18FE1264  8  2B 00 8A 02 00 04 1A 18 
   729)     10695.6  Rx     1802DAD0  8  00 FF FF FF FF 00 00 0E 
   730)     10695.9  Rx     18FE64EF  8  00 00 00 00 00 00 00 00 
   731)     10696.2  Rx     18FE74D0  8  00 00 00 00 00 00 00 00 
   732)     10696.6  Rx     18FEF100  8  00 FF FF 00 FF FF FF FF 
   733)     10696.9  Rx     18FF0BD0  8  FF FF 20 4E 00 FF FF 0E 
   734)     10697.3  Rx     18FF0CD0  8  68 C0 00 00 00 00 90 01 
   735)     10697.6  Rx     18FF0ED0  8  FD 7F FD 7F FF 02 60 00 
   736)     10698.0  Rx     18FF0FEF  8  23 00 00 00 00 00 00 00 
   737)     10698.3  Rx     18FF10EF  8  00 28 27 20 4E 20 4E 12 
   738)     10698.6  Rx     18FFCE21  8  82 C0 00 00 FF FF 00 FF 
   739)     10698.9  Rx     18FF1EEF  8  00 1B 00 10 27 00 00 01 
   740)     10699.4  Rx     18FE0621  8  00 00 00 00 00 00 00 00 
   741)     10700.7  Rx     1C01CE21  8  00 00 01 15 27 00 FF FF 
   742)     10710.8  Rx     0CF00400  8  FF 7D 7D 00 00 FF 00 FF 
   743)     10712.1  Rx     18FFB8D8  8  00 00 00 00 00 00 00 00 
   744)     10712.8  Rx     18FFB5D8  8  00 00 00 00 8A 00 00 00 
   745)     10714.2  Rx     18FFB9D8  8  00 00 25 08 00 00 28 05 
   746)     10721.3  Rx     18FFF955  8  FF 4D 8C 00 00 0F 0B 00 
   747)     10722.0  Rx     18F0010B  8  CF FF 30 FF FF 5D FF FF 
   748)     10722.3  Rx     18FEBF0B  8  FF FF FF FF FF FF FF FF 
   749)     10724.5  Rx     18FFC821  8  FF FF FF FF F8 FF FF FF 
   750)     10730.8  Rx     0CF00400  8  FF 7D 7D 00 00 FF 00 FF 
   751)     10733.2  Rx     18FFB5D8  8  00 00 00 00 8A 00 00 00 
   752)     10734.1  Rx     18FFBBD8  8  00 00 00 00 00 00 00 00 
   753)     10734.4  Rx     18FF7005  8  F0 D0 FF FF 4F FF FC 01 
   754)     10736.1  Rx     18FFBCD8  8  00 00 23 08 00 00 28 05 
   755)     10740.8  Rx     0CFE6CEE  8  FF FF FF FF FF FF 00 00 
   756)     10744.2  Rx     0C010305  8  FF FF 7D FF FF BC FF 16 
   757)     10750.8  Rx     0CF00400  8  FF 7D 7D 00 00 FF 00 FF 
   758)     10753.2  Rx     18FFB5D8  8  00 00 00 00 89 00 00 00 
   759)     10762.4  Rx     18FF2CF3  8  08 3C 0C C3 F0 FF 64 10 
   760)     10768.5  Rx     0CFF0013  8  86 3D 00 00 00 81 04 00 
   761)     10770.9  Rx     0CF00400  8  FF 7D 7D 00 00 FF 00 FF 
   762)     10771.4  Rx     18FF2EF3  8  00 00 00 00 44 05 96 03 
   763)     10772.0  Rx     18FEBF0B  8  FF FF FF FF FF FF FF FF 
   764)     10773.2  Rx     18FFB5D8  8  00 00 00 00 8A 00 00 00 
   765)     10774.5  Rx     18FFC821  8  FF FF FF FF F8 FF FF FF 
   766)     10781.4  Rx     18FF32F3  8  06 14 10 27 DD 4C 2A 00 
   767)     10784.4  Rx     18FF7005  8  F0 D0 FF FF 4F FF FC 01 
   768)     10791.0  Rx     0C0228D0  8  00 00 00 00 02 00 27 28 
   769)     10791.4  Rx     0CF00400  8  FF 7D 7D 00 00 FF 00 FF 
   770)     10791.7  Rx     0CFE6CEE  8  FF FF FF FF FF FF 00 00 
   771)     10792.1  Rx     0CFF04D0  8  00 00 00 00 00 00 00 0F 
   772)     10792.4  Rx     0CFF0AD0  8  00 00 00 00 FF 00 0C 0F 
   773)     10793.2  Rx     18FFB5D8  8  00 00 00 00 89 00 00 00 
   774)     10794.2  Rx     0C010305  8  FF FF 7D FF FF BC FF 37 
   775)     10795.0  Rx     18FE1264  8  2B 00 8A 02 00 04 19 18 
   776)     10795.6  Rx     1802DAD0  8  00 FF FF FF FF 00 00 0F 
   777)     10796.0  Rx     18FE64EF  8  00 00 00 00 00 00 00 00 
   778)     10796.3  Rx     18FE74D0  8  00 00 00 00 00 00 00 00 
   779)     10796.7  Rx     18FEF100  8  00 FF FF 00 FF FF FF FF 
   780)     10797.0  Rx     18FF0BD0  8  FF FF 20 4E 00 FF FF 1F 
   781)     10797.3  Rx     18FF0CD0  8  68 E0 00 00 00 00 90 01 
   782)     10797.7  Rx     18FF0ED0  8  FD 7F FD 7F FF 02 60 00 
   783)     10798.0  Rx     18FFCE21  8  82 C0 00 00 FF FF 00 FF 
   784)     10798.2  Rx     18FF0FEF  8  25 00 00 00 00 00 00 00 
   785)     10798.6  Rx     18FF10EF  8  00 28 27 20 4E 20 4E 12 
   786)     10799.0  Rx     18FF1EEF  8  00 1B 00 10 27 00 00 01 
   787)     10799.3  Rx     18FE0621  8  00 00 00 00 00 00 00 00 
   788)     10800.5  Rx     1C01CE21  8  00 00 01 15 27 00 FF FF 
   789)     10810.9  Rx     0CF00400  8  FF 7D 7D 00 00 FF 00 FF 
   790)     10813.2  Rx     18FFB5D8  8  00 00 00 00 89 00 00 00 
   791)     10822.0  Rx     18F0010B  8  CF FF 30 FF FF 5D FF FF 
   792)     10822.3  Rx     18FFB7D8  8  00 00 00 00 00 00 00 00 
   793)     10822.6  Rx     18FEBF0B  8  FF FF FF FF FF FF FF FF 
   794)     10824.5  Rx     18FFC821  8  FF FF FF FF F8 FF FF FF 
   795)     10830.9  Rx     0CF00400  8  FF 7D 7D 00 00 FF 00 FF 
   796)     10833.2  Rx     18FFB5D8  8  00 00 00 00 8A 00 00 00 
   797)     10834.4  Rx     18FF7005  8  F0 D0 FF FF 4F FF FC 01 
   798)     10841.0  Rx     0CFE6CEE  8  FF FF FF FF FF FF 00 00 
   799)     10844.2  Rx     0C010305  8  FF FF 7D FF FF BC FF 30 
   800)     10850.9  Rx     0CF00400  8  FF 7D 7D 00 00 FF 00 FF 
   801)     10853.2  Rx     18FFB5D8  8  00 00 00 00 89 00 00 00 
   802)     10862.4  Rx     18FF2CF3  8  08 3C 0C C3 F0 FF 64 11 
   803)     10868.6  Rx     0CFF0013  8  86 3D 00 00 00 81 04 00 
   804)     10870.9  Rx     0CF00400  8  FF 7D 7D 00 00 FF 00 FF 
   805)     10871.4  Rx     18FF2EF3  8  00 00 00 00 44 05 96 03 
   806)     10872.1  Rx     18FEBF0B  8  FF FF FF FF FF FF FF FF 
   807)     10873.2  Rx     18FFB5D8  8  00 00 00 00 8A 00 00 00 
   808)     10874.5  Rx     18FFC821  8  FF FF FF FF F8 FF FF FF 
   809)     10881.4  Rx     18FF32F3  8  06 14 10 27 DD 4C 2A 00 
   810)     10884.4  Rx     18FF7005  8  F0 D0 FF FF 4F FF FC 01 
   811)     10891.2  Rx     0C0228D0  8  00 00 00 00 02 00 27 28 
   812)     10891.5  Rx     0CF00400  8  FF 7D 7D 00 00 FF 00 FF 
   813)     10891.9  Rx     0CFE6CEE  8  FF FF FF FF FF FF 00 00 
   814)     10892.2  Rx     0CFF04D0  8  00 00 00 00 00 00 00 10 
   815)     10892.5  Rx     0CFF0AD0  8  00 00 00 00 FF 00 0C 10 
   816)     10893.2  Rx     18FFB5D8  8  00 00 00 00 89 00 00 00 
   817)     10894.2  Rx     0C010305  8  FF FF 7D FF FF BC FF 41 
   818)     10895.0  Rx     18FE1264  8  2B 00 8A 02 00 04 19 18 
   819)     10895.7  Rx     1802DAD0  8  00 FF FF FF FF 00 00 10 
   820)     10896.0  Rx     18FE64EF  8  00 00 00 00 00 00 00 00 
   821)     10896.4  Rx     18FE74D0  8  00 00 00 00 00 00 00 00 
   822)     10896.7  Rx     18FEF100  8  00 FF FF 00 FF FF FF FF 
   823)     10897.1  Rx     18FF0BD0  8  FF FF 20 4E 00 FF FF 10 
   824)     10897.4  Rx     18FF0CD0  8  68 00 00 00 00 00 90 01 
   825)     10897.7  Rx     18FF0ED0  8  FD 7F FD 7F FF 02 60 00 
   826)     10898.1  Rx     18FF0FEF  8  20 00 00 00 00 00 00 00 
   827)     10898.4  Rx     18FF10EF  8  00 28 27 20 4E 20 4E 12 
   828)     10898.8  Rx     18FF1EEF  8  00 1D 00 10 27 00 00 01 
   829)     10899.1  Rx     18FFCE21  8  82 C0 00 00 FF FF 00 FF 
   830)     10900.1  Rx     18FE0621  8  00 00 00 00 00 00 00 00 
   831)     10901.0  Rx     1C01CE21  8  00 00 01 15 27 00 FF FF 
   832)     10911.0  Rx     0CF00400  8  FF 7D 7D 00 00 FF 00 FF 
   833)     10913.2  Rx     18FFB5D8  8  00 00 00 00 89 00 00 00 
   834)     10922.1  Rx     18F0010B  8  CF FF 30 FF FF 5D FF FF 
   835)     10922.3  Rx     18FEBF0B  8  FF FF FF FF FF FF FF FF 
   836)     10924.5  Rx     18FFC821  8  FF FF FF FF F8 FF FF FF 
   837)     10931.0  Rx     0CF00400  8  FF 7D 7D 00 00 FF 00 FF 
   838)     10933.1  Rx     18FFEB21  8  01 48 56 33 45 2D 2D 4C 
   839)     10933.4  Rx     18FFB5D8  8  00 00 00 00 8A 00 00 00 
   840)     10934.4  Rx     18FF7005  8  F0 D0 FF FF 4F FF FC 01 
   841)     10941.0  Rx     0CFE6CEE  8  FF FF FF FF FF FF 00 00 
   842)     10944.5  Rx     0C010305  8  FF FF 7D FF FF BC FF 52 
   843)     10951.0  Rx     0CF00400  8  FF 7D 7D 00 00 FF 00 FF 
   844)     10953.2  Rx     18FFB5D8  8  00 00 00 00 89 00 00 00 
   845)     10962.4  Rx     18FF2CF3  8  08 3C 0C C3 F0 FF 64 12 
   846)     10968.7  Rx     0CFF0013  8  86 3D 00 00 00 81 04 00 
   847)     10971.0  Rx     0CF00400  8  FF 7D 7D 00 00 FF 00 FF 
   848)     10971.3  Rx     18FF2EF3  8  00 00 00 00 44 05 96 03 
   849)     10972.1  Rx     18FEBF0B  8  FF FF FF FF FF FF FF FF 
   850)     10973.2  Rx     18FFB5D8  8  00 00 00 00 8A 00 00 00 
   851)     10974.5  Rx     18FFC821  8  FF FF FF FF F8 FF FF FF 
   852)     10981.3  Rx     18FF32F3  8  06 14 10 27 DD 4C 2A 00 
   853)     10984.4  Rx     18FF7005  8  F0 D0 FF FF 4F FF FC 01 
   854)     10991.2  Rx     0C0228D0  8  00 00 00 00 02 00 27 28 
   855)     10991.6  Rx     0CF00400  8  FF 7D 7D 00 00 FF 00 FF 
   856)     10991.9  Rx     0CFE6CEE  8  FF FF FF FF FF FF 00 00 
   857)     10992.3  Rx     0CFF04D0  8  00 00 00 00 00 00 00 11 
   858)     10992.6  Rx     0CFF0AD0  8  00 00 00 00 FF 00 0C 11 
   859)     10993.2  Rx     18FFB5D8  8  00 00 00 00 89 00 00 00 
   860)     10994.5  Rx     0C010305  8  FF FF 7D FF FF BC FF 63 
   861)     10995.0  Rx     18FE1264  8  2B 00 8A 02 00 04 1A 18 
   862)     10995.7  Rx     1802DAD0  8  00 FF FF FF FF 00 00 11 
   863)     10996.1  Rx     18FE64EF  8  00 00 00 00 00 00 00 00 
   864)     10996.4  Rx     18FE74D0  8  00 00 00 00 00 00 00 00 
   865)     10996.8  Rx     18FEF100  8  00 FF FF 00 FF FF FF FF 
   866)     10997.1  Rx     18FF0BD0  8  FF FF 20 4E 00 FF FF 21 
   867)     10997.4  Rx     18FF0CD0  8  68 20 00 00 00 00 90 01 
   868)     10997.8  Rx     18FF0ED0  8  FD 7F FD 7F FF 02 60 00 
   869)     10998.1  Rx     18FF0FEF  8  22 00 00 00 00 00 00 00 
   870)     10998.4  Rx     18FF10EF  8  00 28 27 20 4E 20 4E 12 
   871)     10998.7  Rx     18FFCE21  8  82 C0 00 00 FF FF 00 FF 
   872)     10999.0  Rx     18FF1EEF  8  00 1C 00 10 27 00 00 01 
   873)     10999.3  Rx     18FE0621  8  00 00 00 00 00 00 00 00 
   874)     11000.8  Rx     1C01CE21  8  00 00 01 15 27 00 FF FF 
   875)     11011.1  Rx     0CF00400  8  FF 7D 7D 00 00 FF 00 FF 
   876)     11012.1  Rx     18FFB8D8  8  00 00 00 00 00 00 00 00 
   877)     11013.2  Rx     18FFB5D8  8  00 00 00 00 89 00 00 00 
   878)     11014.1  Rx     18FFB9D8  8  00 00 25 08 00 00 28 06 
   879)     11022.1  Rx     18F0010B  8  CF FF 30 FF FF 5D FF FF 
   880)     11022.4  Rx     18FEBF0B  8  FF FF FF FF FF FF FF FF 
   881)     11024.4  Rx     18FFC821  8  FF FF FF FF F8 FF FF FF 
   882)     11031.1  Rx     0CF00400  8  FF 7D 7D 00 00 FF 00 FF 
   883)     11033.2  Rx     18FFB5D8  8  00 00 00 00 8A 00 00 00 
   884)     11034.1  Rx     18FFBBD8  8  00 00 00 00 00 00 00 00 
   885)     11034.4  Rx     18FF7005  8  F0 D0 FF FF 4F FF FC 01 
   886)     11036.1  Rx     18FFBCD8  8  00 00 23 08 00 00 28 06 
   887)     11041.1  Rx     0CFE6CEE  8  FF FF FF FF FF FF 00 00 
   888)     11044.5  Rx     0C010305  8  FF FF 7D FF FF BC FF 74 
   889)     11047.8  Rx     18FFBE28  8  BD 11 00 00 00 00 04 36 
   890)     11048.1  Rx     18FFBF28  8  00 00 8A 00 40 06 00 00 
   891)     11051.0  Rx     0CF00400  8  FF 7D 7D 00 00 FF 00 FF 
   892)     11053.3  Rx     18FFB5D8  8  00 00 00 00 89 00 00 00 
   893)     11062.5  Rx     18FF2CF3  8  08 3C 0C C3 F0 FF 64 13 
   894)     11062.8  Rx     18FF2DF3  8  F2 06 14 10 27 1C BF 54 
   895)     11063.1  Rx     18FF2FF3  8  00 00 AD 01 00 00 1F FF 
   896)     11063.4  Rx     18FF33F3  8  D7 0C D6 0C D5 0C D6 0C 
   897)     11063.6  Rx     18FF98F3  8  27 27 27 27 27 27 27 27 
   898)     11068.9  Rx     0CFF0013  8  42 3B 00 00 00 81 04 20 
   899)     11071.1  Rx     0CF00400  8  FF 7D 7D 00 00 FF 00 FF 
   900)     11071.4  Rx     18FF2EF3  8  00 00 00 00 44 05 96 03 
   901)     11071.7  Rx     18FF30F3  8  11 00 D7 0C 61 02 D4 0C 
   902)     11072.0  Rx     1801D0F9  8  00 00 00 00 00 00 00 00 
   903)     11072.3  Rx     18FEBF0B  8  FF FF FF FF FF FF FF FF 
   904)     11072.5  Rx     18FF34F3  8  D6 0C D6 0C D6 0C D6 0C 
   905)     11073.3  Rx     18FFB5D8  8  00 00 00 00 8A 00 00 00 
   906)     11074.2  Rx     18FFC821  8  FF FF FF FF F8 FF FF FF 
   907)     11081.3  Rx     18FF31F3  8  B1 00 28 11 00 27 FF FF 
   908)     11081.6  Rx     18FF32F3  8  06 14 10 27 DD 4C 2A 00 
   909)     11081.9  Rx     18FFEAF3  8  9C 00 12 00 00 00 B2 00 
   910)     11082.2  Rx     18FF35F3  8  D6 0C D6 0C D5 0C D5 0C 
   911)     11082.5  Rx     18FF99F3  8  27 27 28 27 27 27 28 28 
   912)     11084.5  Rx     18FF7005  8  F0 D0 FF FF 4F FF FC 01 
   913)     11091.3  Rx     0C0228D0  8  00 00 00 00 02 00 27 28 
   914)     11091.6  Rx     18FFEBF3  8  02 30 31 30 31 34 39 62 
   915)     11091.8  Rx     0CF00400  8  FF 7D 7D 00 00 FF 00 FF 
   916)     11092.1  Rx     18FF36F3  8  D5 0C D7 0C D5 0C D5 0C 
   917)     11092.4  Rx     0CFE6CEE  8  FF FF FF FF FF FF 00 00 
   918)     11092.7  Rx     0CFF04D0  8  00 00 00 00 00 00 00 12 
   919)     11093.2  Rx     18FFB5D8  8  00 00 00 00 89 00 00 00 
   920)     11094.4  Rx     0C010305  8  FF FF 7D FF FF BC FF 05 
   921)     11094.9  Rx     18FE1264  8  2B 00 8A 02 00 04 19 18 
   922)     11095.8  Rx     0CFF0AD0  8  00 00 00 00 FF 00 0C 12 
   923)     11096.1  Rx     1802DAD0  8  00 FF FF FF FF 00 00 12 
   924)     11096.5  Rx     18FE64EF  8  00 00 00 00 00 00 00 00 
   925)     11096.8  Rx     18FE74D0  8  00 00 00 00 00 00 00 00 
   926)     11097.2  Rx     18FEF100  8  00 FF FF 00 FF FF FF FF 
   927)     11097.5  Rx     18FF0BD0  8  FF FF 20 4E 00 FF FF 32 
   928)     11097.8  Rx     18FFCE21  8  82 C0 00 00 FF FF 00 FF 
   929)     11098.1  Rx     18FF0CD0  8  68 40 00 00 00 00 90 01 
   930)     11098.4  Rx     18FF0ED0  8  FD 7F FD 7F FF 02 60 00 
   931)     11098.7  Rx     18FF0FEF  8  24 00 00 00 00 00 00 00 
   932)     11099.0  Rx     18FE0621  8  00 00 00 00 00 00 00 00 
   933)     11099.3  Rx     18FF10EF  8  00 28 27 20 4E 20 4E 12 
   934)     11099.6  Rx     18FF1EEF  8  00 1D 00 10 27 00 00 01 
   935)     11100.5  Rx     1C01CE21  8  00 00 01 15 27 00 FF FF 
   936)     11101.3  Rx     18FFECF3  8  43 45 42 2D 42 37 30 48 
   937)     11101.6  Rx     18FF37F3  8  D5 0C D6 0C D6 0C D5 0C 
   938)     11101.9  Rx     18FF9AF3  8  28 27 FF FF FF FF FF FF 
   939)     11111.2  Rx     0CF00400  8  FF 7D 7D 00 00 FF 00 FF 
   940)     11111.4  Rx     18FF38F3  8  D6 0C D5 0C D6 0C D5 0C 
   941)     11113.3  Rx     18FFB5D8  8  00 00 00 00 89 00 00 00 
   942)     11121.3  Rx     18FF39F3  8  D5 0C D5 0C D6 0C D5 0C 
   943)     11122.0  Rx     18FFB7D8  8  00 00 00 00 00 00 00 00 
   944)     11122.3  Rx     18F0010B  8  CF FF 30 FF FF 5D FF FF 
   945)     11122.6  Rx     18FEBF0B  8  FF FF FF FF FF FF FF FF 
   946)     11124.2  Rx     18FFC821  8  FF FF FF FF F8 FF FF FF 
   947)     11131.2  Rx     0CF00400  8  FF 7D 7D 00 00 FF 00 FF 
   948)     11131.4  Rx     18FF3AF3  8  D5 0C D5 0C D5 0C D5 0C 
   949)     11133.3  Rx     18FFB5D8  8  00 00 00 00 89 00 00 00 
   950)     11134.5  Rx     18FF7005  8  F0 D0 FF FF 4F FF FC 01 
   951)     11141.1  Rx     0CFE6CEE  8  FF FF FF FF FF FF 00 00 
   952)     11141.4  Rx     18FF3BF3  8  D5 0C D5 0C D5 0C D5 0C 
   953)     11144.4  Rx     0C010305  8  FF FF 7D FF FF BC FF 16 
   954)     11151.1  Rx     0CF00400  8  FF 7D 7D 00 00 FF 00 FF 
   955)     11151.4  Rx     18FF3CF3  8  D5 0C D5 0C D4 0C D8 0C 
   956)     11153.3  Rx     18FFB5D8  8  00 00 00 00 89 00 00 00 
   957)     11162.4  Rx     18FF2CF3  8  08 3C 0C C3 F0 FF 64 14 
   958)     11162.7  Rx     18FF3DF3  8  D6 0C D6 0C D6 0C D6 0C 
   959)     11168.9  Rx     18FECA13  8  00 00 00 00 00 00 00 00 
   960)     11169.2  Rx     0CFF0013  8  42 3B 00 00 00 81 04 20 
   961)     11169.5  Rx     18FFEB13  8  02 30 32 30 32 35 36 73 
   962)     11171.2  Rx     0CF00400  8  FF 7D 7D 00 00 FF 00 FF 
   963)     11171.4  Rx     18FF2EF3  8  00 00 00 00 44 05 96 03 
   964)     11171.7  Rx     18FF3EF3  8  D6 0C D6 0C D6 0C D6 0C 
   965)     11172.1  Rx     18FEBF0B  8  FF FF FF FF FF FF FF FF 
   966)     11173.2  Rx     18FFB5D8  8  00 00 00 00 8A 00 00 00 
   967)     11174.5  Rx     18FFC821  8  FF FF FF FF F8 FF FF FF 
   968)     11181.2  Rx     0CFFC1D0  8  00 EA 01 00 00 00 08 2D 
   969)     11181.5  Rx     18FF32F3  8  05 14 10 27 DD 4C 2A 00 
   970)     11181.8  Rx     18FEF500  8  64 00 00 E0 21 00 00 00 
   971)     11182.0  Rx     18FF3FF3  8  D6 0C D5 0C D5 0C D4 0C 
   972)     11182.3  Rx     18FF03FD  8  00 00 00 00 00 00 00 FF 
   973)     11182.6  Rx     18FF0DD0  8  51 01 00 00 00 0C D0 07 
   974)     11184.4  Rx     18FF7005  8  F0 D0 FF FF 4F FF FC 01 
   975)     11185.7  Rx     18FFDBEF  8  02 30 33 30 31 35 33 61 
   976)     11191.3  Rx     18FF40F3  8  D8 0C D6 0C D6 0C D6 0C 
   977)     11191.6  Rx     0C0228D0  8  00 00 00 00 02 00 27 28 
   978)     11191.9  Rx     0CF00400  8  FF 7D 7D 00 00 FF 00 FF 
   979)     11192.3  Rx     0CFE6CEE  8  FF FF FF FF FF FF 00 00 
   980)     11192.7  Rx     0CFF04D0  8  00 00 00 00 00 00 00 13 
   981)     11193.0  Rx     18FFB5D8  8  00 00 00 00 89 00 00 00 
   982)     11194.2  Rx     0C010305  8  FF FF 7D FF FF BC FF 37 
   983)     11194.9  Rx     18FE1264  8  2B 00 8A 02 00 04 1A 18 
   984)     11195.9  Rx     0CFF0AD0  8  00 00 00 00 FF 00 0C 13 
   985)     11196.2  Rx     1802DAD0  8  00 FF FF FF FF 00 00 13 
   986)     11196.6  Rx     18FE64EF  8  00 00 00 00 00 00 00 00 
   987)     11196.9  Rx     18FE74D0  8  00 00 00 00 00 00 00 00 
   988)     11197.3  Rx     18FEF100  8  00 FF FF 00 FF FF FF FF 
   989)     11197.6  Rx     18FF0BD0  8  FF FF 20 4E 00 FF FF 43 
   990)     11197.9  Rx     18FFCE21  8  82 C0 00 00 FF FF 00 FF 
   991)     11198.2  Rx     18FF0CD0  8  68 60 00 00 00 00 90 01 
   992)     11198.5  Rx     18FF0ED0  8  FD 7F FD 7F FF 02 60 00 
   993)     11198.9  Rx     18FF0FEF  8  26 00 00 00 00 00 00 00 
   994)     11199.2  Rx     18FE0621  8  00 00 00 00 00 00 00 00 
   995)     11199.5  Rx     18FF10EF  8  00 28 27 20 4E 20 4E 12 
   996)     11199.8  Rx     18FF1EEF  8  00 1C 00 10 27 00 00 01 
   997)     11200.4  Rx     1C01CE21  8  00 00 01 15 27 00 FF FF 
   998)     11201.2  Rx     1809F9D0  8  03 35 43 56 00 00 00 00 
   999)     11201.4  Rx     18FF41F3  8  D6 0C D6 0C D6 0C D6 0C 
  1000)     11211.2  Rx     0CF00400  8  FF 7D 7D 00 00 FF 00 FF 
  1001)     11211.5  Rx     18FF42F3  8  D6 0C D6 0C D5 0C D5 0C 
  1002)     11213.3  Rx     18FFB5D8  8  00 00 00 00 89 00 00 00 
  1003)     11221.3  Rx     18FFF955  8  FF 4D 8C 00 00 0F 0B 00 
  1004)     11221.5  Rx     18FF43F3  8  D5 0C D7 0C D6 0C D6 0C 
  1005)     11222.1  Rx     18F0010B  8  CF FF 30 FF FF 5D FF FF 
  1006)     11222.4  Rx     18FEBF0B  8  FF FF FF FF FF FF FF FF 
  1007)     11223.3  Rx     18FFB6D8  8  00 00 25 08 00 00 00 00 
  1008)     11224.5  Rx     18FFC821  8  FF FF FF FF F8 FF FF FF 
  1009)     11231.2  Rx     0CF00400  8  FF 7D 7D 00 00 FF 00 FF 
  1010)     11231.4  Rx     18FF44F3  8  D5 0C D6 0C D5 0C D5 0C 
  1011)     11233.3  Rx     18FFB5D8  8  00 00 00 00 89 00 00 00 
  1012)     11234.2  Rx     18FF7005  8  F0 D0 FF FF 4F FF FC 01 
  1013)     11240.1  Rx     18FFDFD8  8  03 FF FF FF FF FF FF FF 
  1014)     11241.3  Rx     0CFE6CEE  8  FF FF FF FF FF FF 00 00 
  1015)     11241.5  Rx     18FF45F3  8  D5 0C D5 0C D5 0C D5 0C 
  1016)     11244.5  Rx     0C010305  8  FF FF 7D FF FF BC FF 30 
  1017)     11251.3  Rx     0CF00400  8  FF 7D 7D 00 00 FF 00 FF 
  1018)     11251.5  Rx     18FF46F3  8  D5 0C D5 0C D7 0C D6 0C 
  1019)     11253.3  Rx     18FFB5D8  8  00 00 00 00 89 00 00 00 
  1020)     11262.1  Rx     18FFE0D8  8  03 FF FF FF FF FF FF FF 
  1021)     11262.4  Rx     18FF2CF3  8  08 3C 0C C3 F0 FF 64 15 
  1022)     11262.7  Rx     18FF47F3  8  D6 0C D6 0C D6 0C D6 0C 
  1023)     11269.1  Rx     0CFF0013  8  42 3B 00 00 00 81 04 20 
  1024)     11271.2  Rx     0CF00400  8  FF 7D 7D 00 00 FF 00 FF 
  1025)     11271.5  Rx     18FF2EF3  8  00 00 00 00 44 05 96 03 
  1026)     11271.8  Rx     18FF48F3  8  D6 0C D6 0C D6 0C D6 0C 
  1027)     11272.2  Rx     18FEBF0B  8  FF FF FF FF FF FF FF FF 
  1028)     11273.3  Rx     18FFB5D8  8  00 00 00 00 8A 00 00 00 
  1029)     11274.4  Rx     18FFC821  8  FF FF FF FF F8 FF FF FF 
  1030)     11281.3  Rx     18FF32F3  8  05 14 10 27 DD 4C 2A 00 
  1031)     11281.6  Rx     18FF49F3  8  D5 0C D5 0C D5 0C D8 0C 
  1032)     11283.3  Rx     18FFDED8  8  03 FF FF FF FF FF FF FF 
  1033)     11284.5  Rx     18FF7005  8  F0 D0 FF FF 4F FF FC 01 
  1034)     11290.0  Rx     18FFDDD8  8  03 FF FF FF FF FF FF FF 
  1035)     11291.3  Rx     18FF4AF3  8  D6 0C D6 0C D5 0C D6 0C 
  1036)     11291.6  Rx     0C0228D0  8  00 00 00 00 02 00 27 28 
  1037)     11291.9  Rx     0CF00400  8  FF 7D 7D 00 00 FF 00 FF 
  1038)     11292.3  Rx     0CFE6CEE  8  FF FF FF FF FF FF 00 00 
  1039)     11292.7  Rx     0CFF04D0  8  00 00 00 00 00 00 00 14 
  1040)     11293.0  Rx     0CFF0AD0  8  00 00 00 00 FF 00 0C 14 
  1041)     11293.3  Rx     18FFB5D8  8  00 00 00 00 89 00 00 00 
  1042)     11294.5  Rx     0C010305  8  FF FF 7D FF FF BC FF 41 
  1043)     11294.9  Rx     18FE1264  8  2B 00 8A 02 00 04 19 18 
  1044)     11296.0  Rx     1802DAD0  8  00 FF FF FF FF 00 00 14 
  1045)     11296.4  Rx     18FE64EF  8  00 00 00 00 00 00 00 00 
  1046)     11296.7  Rx     18FE74D0  8  00 00 00 00 00 00 00 00 
  1047)     11297.0  Rx     18FEF100  8  00 FF FF 00 FF FF FF FF 
  1048)     11297.4  Rx     18FF0BD0  8  FF FF 20 4E 00 FF FF 64 
  1049)     11297.7  Rx     18FF0CD0  8  68 80 00 00 00 00 90 01 
  1050)     11298.1  Rx     18FF0ED0  8  FD 7F FD 7F FF 02 60 00 
  1051)     11298.4  Rx     18FF0FEF  8  20 00 00 00 00 00 00 00 
  1052)     11298.7  Rx     18FFCE21  8  82 C0 00 00 FF FF 00 FF 
  1053)     11299.0  Rx     18FF10EF  8  00 28 27 20 4E 20 4E 12 
  1054)     11299.3  Rx     18FE0621  8  00 00 00 00 00 00 00 00 
  1055)     11299.6  Rx     18FF1EEF  8  00 1D 00 10 27 00 00 01 
  1056)     11300.9  Rx     1C01CE21  8  00 00 01 15 27 00 FF FF 
  1057)     11301.4  Rx     18FF4BF3  8  D5 0C D5 0C D6 0C D5 0C 
  1058)     11311.3  Rx     0CF00400  8  FF 7D 7D 00 00 FF 00 FF 
  1059)     11311.6  Rx     18FF4CF3  8  D5 0C D5 0C D5 0C D5 0C 
  1060)     11312.1  Rx     18FFB8D8  8  00 00 00 00 00 00 00 00 
  1061)     11313.3  Rx     18FFB5D8  8  00 00 00 00 89 00 00 00 
  1062)     11314.2  Rx     18FFB9D8  8  00 00 25 08 00 00 28 07 
  1063)     11321.3  Rx     18FF4DF3  8  D7 0C D5 0C D5 0C D5 0C 
  1064)     11322.2  Rx     18F0010B  8  CF FF 30 FF FF 5D FF FF 
  1065)     11322.5  Rx     18FEBF0B  8  FF FF FF FF FF FF FF FF 
  1066)     11323.8  Rx     18FFDDD8  8  03 FF FF FF FF FF FF FF 
  1067)     11324.4  Rx     18FFC821  8  FF FF FF FF F8 FF FF FF 
  1068)     11331.3  Rx     0CF00400  8  FF 7D 7D 00 00 FF 00 FF 
  1069)     11331.6  Rx     18FF4EF3  8  D5 0C D6 0C D6 0C D6 0C 
  1070)     11333.4  Rx     18FFB5D8  8  00 00 00 00 89 00 00 00 
  1071)     11334.1  Rx     18FFBBD8  8  00 00 00 00 00 00 00 00 
  1072)     11334.5  Rx     18FF7005  8  F0 D0 FF FF 4F FF FC 01 
  1073)     11336.1  Rx     18FFBCD8  8  00 00 23 08 00 00 28 07 
  1074)     11341.3  Rx     0CFE6CEE  8  FF FF FF FF FF FF 00 00 
  1075)     11341.6  Rx     18FF4FF3  8  D6 0C D6 0C D5 0C D5 0C 
  1076)     11344.5  Rx     0C010305  8  FF FF 7D FF FF BC FF 52 
  1077)     11351.3  Rx     0CF00400  8  FF 7D 7D 00 00 FF 00 FF 
  1078)     11351.6  Rx     18FF50F3  8  D5 0C D7 0C D6 0C D6 0C 
  1079)     11353.3  Rx     18FFB5D8  8  00 00 00 00 89 00 00 00 
  1080)     11362.4  Rx     18FF2CF3  8  08 3C 0C C3 F0 FF 64 16 
  1081)     11362.7  Rx     18FF51F3  8  D6 0C D6 0C D6 0C D6 0C 
  1082)     11369.2  Rx     0CFF0013  8  42 3B 00 00 00 81 04 20 
  1083)     11371.3  Rx     0CF00400  8  FF 7D 7D 00 00 FF 00 FF 
  1084)     11371.6  Rx     18FF2EF3  8  00 00 00 00 44 05 96 03 
  1085)     11371.9  Rx     18FF52F3  8  D6 0C D6 0C D6 0C D5 0C 
  1086)     11372.2  Rx     18FEBF0B  8  FF FF FF FF FF FF FF FF 
  1087)     11373.4  Rx     18FFB5D8  8  00 00 00 00 8A 00 00 00 
  1088)     11374.4  Rx     18FFC821  8  FF FF FF FF F8 FF FF FF 
  1089)     11381.3  Rx     18FF32F3  8  06 14 10 27 DD 4C 2A 00 
  1090)     11381.6  Rx     18FF53F3  8  D5 0C D5 0C D6 0C D5 0C 
  1091)     11384.5  Rx     18FF7005  8  F0 D0 FF FF 4F FF FC 01 
  1092)     11391.3  Rx     18FF54F3  8  D5 0C D5 0C D6 0C D6 0C 
  1093)     11391.6  Rx     0C0228D0  8  00 00 00 00 02 00 27 28 
  1094)     11391.9  Rx     0CF00400  8  FF 7D 7D 00 00 FF 00 FF 
  1095)     11392.3  Rx     0CFE6CEE  8  FF FF FF FF FF FF 00 00 
  1096)     11392.7  Rx     0CFF04D0  8  00 00 00 00 00 00 00 15 
  1097)     11393.0  Rx     0CFF0AD0  8  00 00 00 00 FF 00 0C 15 
  1098)     11393.3  Rx     18FFB5D8  8  00 00 00 00 89 00 00 00 
  1099)     11394.5  Rx     0C010305  8  FF FF 7D FF FF BC FF 63 
  1100)     11394.9  Rx     18FE1264  8  2B 00 8A 02 00 04 19 18 
  1101)     11396.0  Rx     1802DAD0  8  00 FF FF FF FF 00 00 15 
  1102)     11396.4  Rx     18FE64EF  8  00 00 00 00 00 00 00 00 
  1103)     11396.7  Rx     18FE74D0  8  00 00 00 00 00 00 00 00 
  1104)     11397.1  Rx     18FEF100  8  00 FF FF 00 FF FF FF FF 
  1105)     11397.4  Rx     18FF0BD0  8  FF FF 20 4E 00 FF FF 75 
  1106)     11397.7  Rx     18FF0CD0  8  68 A0 00 00 00 00 90 01 
  1107)     11398.1  Rx     18FF0ED0  8  FD 7F FD 7F FF 02 60 00 
  1108)     11398.5  Rx     18FF0FEF  8  22 00 00 00 00 00 00 00 
  1109)     11398.8  Rx     18FF10EF  8  00 28 27 20 4E 20 4E 12 
  1110)     11399.1  Rx     18FFCE21  8  82 C0 00 00 FF FF 00 FF 
  1111)     11399.4  Rx     18FF1EEF  8  00 1D 00 10 27 00 00 01 
  1112)     11399.7  Rx     18FE0621  8  00 00 00 00 00 00 00 00 
  1113)     11400.9  Rx     1C01CE21  8  00 00 01 77 00 00 FF FF 
  1114)     11401.4  Rx     18FF55F3  8  D6 0C D6 0C D5 0C D6 0C 
  1115)     11411.3  Rx     0CF00400  8  FF 7D 7D 00 00 FF 00 FF 
  1116)     11411.6  Rx     18FF56F3  8  D5 0C D5 0C D5 0C D7 0C 
  1117)     11413.3  Rx     18FFB5D8  8  00 00 00 00 89 00 00 00 
  1118)     11421.3  Rx     18FF57F3  8  D5 0C D5 0C D5 0C D5 0C 
  1119)     11422.1  Rx     18FFB7D8  8  00 00 00 00 00 00 00 00 
  1120)     11422.4  Rx     18F0010B  8  CF FF 30 FF FF 5D FF FF 
  1121)     11422.7  Rx     18FEBF0B  8  FF FF FF FF FF FF FF FF 
  1122)     11424.4  Rx     18FFC821  8  FF FF FF FF F8 FF FF FF 
  1123)     11424.9  Rx     18FFEB64  8  02 30 32 30 31 35 31 59 
  1124)     11431.3  Rx     18FF58F3  8  D6 0C D5 0C D6 0C D5 0C 
  1125)     11431.6  Rx     0CF00400  8  FF 7D 7D 00 00 FF 00 FF 
  1126)     11433.4  Rx     18FFB5D8  8  00 00 00 00 89 00 00 00 
  1127)     11434.5  Rx     18FF7005  8  F0 D0 FF FF 4F FF FC 01 
  1128)     11441.3  Rx     18FF59F3  8  D6 0C D5 0C D5 0C D4 0C 
  1129)     11441.6  Rx     0CFE6CEE  8  FF FF FF FF FF FF 00 00 
  1130)     11444.5  Rx     0C010305  8  FF FF 7D FF FF BC FF 74 
  1131)     11451.3  Rx     0CF00400  8  FF 7D 7D 00 00 FF 00 FF 
  1132)     11453.4  Rx     18FFB5D8  8  00 00 00 00 89 00 00 00 
  1133)     11462.4  Rx     18FF2CF3  8  08 3C 0C C3 F0 FF 64 17 
  1134)     11469.2  Rx     0CFF0013  8  42 3B 00 00 00 81 04 20 
  1135)     11471.3  Rx     18FF2EF3  8  00 00 00 00 44 05 96 03 
  1136)     11471.6  Rx     0CF00400  8  FF 7D 7D 00 00 FF 00 FF 
  1137)     11472.2  Rx     18FEBF0B  8  FF FF FF FF FF FF FF FF 
  1138)     11473.4  Rx     18FFB5D8  8  00 00 00 00 8A 00 00 00 
  1139)     11474.5  Rx     18FFC821  8  FF FF FF FF F8 FF FF FF 
  1140)     11481.3  Rx     18FF32F3  8  06 14 10 27 DD 4C 2A 00 
  1141)     11484.2  Rx     18FF7005  8  F0 D0 FF FF 4F FF FC 01 
  1142)     11491.6  Rx     0C0228D0  8  00 00 00 00 02 00 27 28 
  1143)     11491.9  Rx     0CF00400  8  FF 7D 7D 00 00 FF 00 FF 
  1144)     11492.3  Rx     0CFE6CEE  8  FF FF FF FF FF FF 00 00 
  1145)     11492.6  Rx     0CFF04D0  8  00 00 00 00 00 00 00 16 
  1146)     11493.0  Rx     0CFF0AD0  8  00 00 00 00 FF 00 0C 16 
  1147)     11493.4  Rx     18FFB5D8  8  00 00 00 00 89 00 00 00 
  1148)     11494.5  Rx     0C010305  8  FF FF 7D FF FF BC FF 05 
  1149)     11494.9  Rx     18FE1264  8  2B 00 8A 02 00 04 1A 18 
  1150)     11496.1  Rx     1802DAD0  8  00 FF FF FF FF 00 00 16 
  1151)     11496.5  Rx     18FE64EF  8  00 00 00 00 00 00 00 00 
  1152)     11496.8  Rx     18FE74D0  8  00 00 00 00 00 00 00 00 
  1153)     11497.1  Rx     18FEF100  8  00 FF FF 00 FF FF FF FF 
  1154)     11497.5  Rx     18FF0BD0  8  FF FF 20 4E 00 FF FF 86 
  1155)     11497.8  Rx     18FF0CD0  8  68 C0 00 00 00 00 90 01 
  1156)     11498.1  Rx     18FFCE21  8  82 C0 00 00 FF FF 00 FF 
  1157)     11498.4  Rx     18FF0ED0  8  FD 7F FD 7F FF 02 60 00 
  1158)     11498.7  Rx     18FF0FEF  8  24 00 00 00 00 00 00 00 
  1159)     11499.0  Rx     18FE0621  8  00 00 00 00 00 00 00 00 
  1160)     11499.3  Rx     18FF10EF  8  00 28 27 20 4E 20 4E 12 
  1161)     11499.6  Rx     18FF1EEF  8  00 1D 00 10 27 00 00 01 
  1162)     11500.6  Rx     1C01CE21  8  00 00 01 77 00 00 FF FF 
  1163)     11505.6  Rx     18FECA64  8  C3 FF 00 00 00 00 00 00 
  1164)     11511.4  Rx     0CF00400  8  FF 7D 7D 00 00 FF 00 FF 
  1165)     11513.4  Rx     18FFB5D8  8  00 00 00 00 89 00 00 00 
  1166)     11522.2  Rx     18F0010B  8  CF FF 30 FF FF 4D FF FF 
  1167)     11522.5  Rx     18FEBF0B  8  FF FF FF FF FF FF FF FF 
  1168)     11524.5  Rx     18FFC821  8  FF FF FF FF F8 FF FF FF 
  1169)     11531.5  Rx     0CF00400  8  FF 7D 7D 00 00 FF 00 FF 
  1170)     11533.4  Rx     18FFB5D8  8  00 00 00 00 89 00 00 00 
  1171)     11534.4  Rx     18FF7005  8  F0 D0 FF FF 4F FF FC 01 
  1172)     11541.4  Rx     0CFE6CEE  8  FF FF FF FF FF FF 00 00 
  1173)     11544.5  Rx     0C010305  8  FF FF 7D FF FF BC FF 16 
  1174)     11547.8  Rx     18FFBE28  8  BD 11 00 00 00 00 04 37 
  1175)     11548.1  Rx     18FFBF28  8  00 00 89 00 40 06 00 00 
  1176)     11551.5  Rx     0CF00400  8  FF 7D 7D 00 00 FF 00 FF 
  1177)     11553.0  Rx     18FFB5D8  8  00 00 00 00 8A 00 00 00 
  1178)     11562.4  Rx     18FF2CF3  8  08 3C 0C C3 F0 FF 64 18 
  1179)     11562.7  Rx     18FF2DF3  8  F2 05 14 10 27 1C BF 54 
  1180)     11569.4  Rx     0CFF0013  8  42 3B 00 00 00 81 04 20 
  1181)     11571.3  Rx     18FF2EF3  8  00 00 00 00 44 05 96 03 
  1182)     11571.6  Rx     0CF00400  8  FF 7D 7D 00 00 FF 00 FF 
  1183)     11571.9  Rx     18FF30F3  8  81 02 D8 0C 51 02 D4 0C 
  1184)     11572.5  Rx     18FEBF0B  8  00 00 7D 7D 7D 7D FF FF 
  1185)     11573.4  Rx     18FFB5D8  8  00 00 00 00 8A 00 00 00 
  1186)     11574.5  Rx     18FFC821  8  FF FF FF FF F8 FF FF FF 
  1187)     11581.3  Rx     18FF31F3  8  B1 00 28 11 00 27 FF FF 
  1188)     11581.6  Rx     18FF32F3  8  05 14 10 27 DD 4C 2A 00 
  1189)     11584.4  Rx     18FF7005  8  F0 D0 FF FF 4F FF FC 01 
  1190)     11591.6  Rx     0C0228D0  8  00 00 00 00 02 00 27 27 
  1191)     11592.0  Rx     0CF00400  8  FF 7D 7D 00 00 FF 00 FF 
  1192)     11592.3  Rx     0CFE6CEE  8  FF FF FF FF FF FF 00 00 
  1193)     11592.7  Rx     0CFF04D0  8  00 00 00 00 00 00 00 17 
  1194)     11593.0  Rx     0CFF0AD0  8  00 00 00 00 FF 00 0C 17 
  1195)     11593.4  Rx     18FFB5D8  8  00 00 00 00 89 00 00 00 
  1196)     11594.5  Rx     0C010305  8  FF FF 7D FF FF BC FF 37 
  1197)     11595.1  Rx     18FE1264  8  2B 00 8A 02 00 04 19 19 
  1198)     11596.2  Rx     1802DAD0  8  00 FF FF FF FF 00 00 17 
  1199)     11596.5  Rx     18FE64EF  8  00 00 00 00 00 00 00 00 
  1200)     11596.9  Rx     18FE74D0  8  00 00 00 00 00 00 00 00 
  1201)     11597.2  Rx     18FEF100  8  00 FF FF 00 FF FF FF FF 
  1202)     11597.5  Rx     18FF0BD0  8  FF FF 20 4E 00 FF FF 97 
  1203)     11597.9  Rx     18FF0CD0  8  68 E0 00 00 00 00 90 01 
  1204)     11598.2  Rx     18FFCE21  8  82 C0 00 00 FF FF 00 FF 
  1205)     11598.5  Rx     18FF0ED0  8  FD 7F FD 7F FF 02 60 00 
  1206)     11598.8  Rx     18FF0FEF  8  26 00 00 00 00 00 00 00 
  1207)     11599.1  Rx     18FF10EF  8  00 27 27 20 4E 20 4E 12 
  1208)     11599.4  Rx     18FE0621  8  00 00 00 00 00 00 00 00 
  1209)     11599.7  Rx     18FF1EEF  8  00 1D 00 10 27 00 00 01 
  1210)     11600.7  Rx     1C01CE21  8  00 00 01 77 00 00 FF FF 
  1211)     11611.5  Rx     0CF00400  8  FF 7D 7D 00 00 FF 00 FF 
  1212)     11612.1  Rx     18FFB8D8  8  00 00 00 00 00 00 00 00 
  1213)     11613.0  Rx     18FFB5D8  8  00 00 00 00 89 00 00 00 
  1214)     11614.1  Rx     18FFB9D8  8  00 00 25 08 00 00 28 08 
  1215)     11622.4  Rx     18F0010B  8  CF FF 30 FF FF 0D FF FF 
  1216)     11622.7  Rx     18FEBF0B  8  00 00 7D 7D 7D 7D FF FF 
  1217)     11624.5  Rx     18FFC821  8  FF FF FF FF F8 FF FF FF 
  1218)     11631.5  Rx     0CF00400  8  FF 7D 7D 00 00 FF 00 FF 
  1219)     11633.0  Rx     18FFB5D8  8  00 00 00 00 89 00 00 00 
  1220)     11634.1  Rx     18FFBBD8  8  00 00 00 00 00 00 00 00 
  1221)     11634.4  Rx     18FF7005  8  F0 D0 FF FF 4F FF FC 01 
  1222)     11636.1  Rx     18FFBCD8  8  00 00 23 08 00 00 28 08 
  1223)     11641.5  Rx     0CFE6CEE  8  FF FF FF FF FF FF 00 00 
  1224)     11644.5  Rx     0C010305  8  FF FF 7D FF FF BC FF 30 
  1225)     11651.5  Rx     0CF00400  8  FF 7D 7D 00 00 FF 00 FF 
  1226)     11653.4  Rx     18FFB5D8  8  00 00 00 00 89 00 00 00 
  1227)     11662.4  Rx     18FF2CF3  8  08 3C 0C C3 F0 FF 64 19 
  1228)     11669.5  Rx     0CFF0013  8  42 3B 00 00 00 81 04 20 
  1229)     11671.3  Rx     18FF2EF3  8  00 00 00 00 44 05 96 03 
  1230)     11671.6  Rx     0CF00400  8  FF 7D 7D 00 00 FF 00 FF 
  1231)     11673.1  Rx     18FEBF0B  8  00 00 7D 7D 7D 7D FF FF 
  1232)     11673.4  Rx     18FFB5D8  8  00 00 00 00 8A 00 00 00 
  1233)     11674.5  Rx     18FFC821  8  FF FF FF FF F8 FF FF FF 
  1234)     11681.3  Rx     18FF32F3  8  05 14 10 27 DD 4C 2A 00 
  1235)     11681.6  Rx     0CFFC1D0  8  00 EA 01 00 00 00 08 2D 
  1236)     11681.9  Rx     18FF0DD0  8  51 01 00 00 00 0C D0 07 
  1237)     11684.4  Rx     18FF7005  8  F0 D0 FF FF 4F FF FC 01 
  1238)     11691.7  Rx     0C0228D0  8  00 00 00 00 02 00 27 28 
  1239)     11692.0  Rx     0CF00400  8  FF 7D 7D 00 00 FF 00 FF 
  1240)     11692.3  Rx     0CFE6CEE  8  FF FF FF FF FF FF 00 00 
  1241)     11692.7  Rx     0CFF04D0  8  00 00 00 00 00 00 00 18 
  1242)     11693.1  Rx     0CFF0AD0  8  00 00 00 00 FF 00 0C 18 
  1243)     11693.4  Rx     18FFB5D8  8  00 00 00 00 89 00 00 00 
  1244)     11694.5  Rx     0C010305  8  FF FF 7D FF FF BC FF 41 
  1245)     11694.9  Rx     18FE1264  8  29 00 8A 02 00 04 1A 19 
  1246)     11696.2  Rx     1802DAD0  8  00 FF FF FF FF 00 00 18 
  1247)     11696.6  Rx     18FE64EF  8  00 00 00 00 00 00 00 00 
  1248)     11697.0  Rx     18FE74D0  8  00 00 00 00 00 00 00 00 
  1249)     11697.3  Rx     18FEF100  8  00 FF FF 00 FF FF FF FF 
  1250)     11697.6  Rx     18FF0BD0  8  FF FF 20 4E 00 FF FF A8 
  1251)     11698.0  Rx     18FF0CD0  8  68 00 00 00 00 00 90 01 
  1252)     11698.3  Rx     18FF0ED0  8  FD 7F FD 7F FF 02 60 00 
  1253)     11698.7  Rx     18FF0FEF  8  20 00 00 00 00 00 00 00 
  1254)     11699.0  Rx     18FFCE21  8  82 C0 00 00 FF FF 00 FF 
  1255)     11699.2  Rx     18FF10EF  8  00 28 27 20 4E 20 4E 12 
  1256)     11699.5  Rx     18FE0621  8  00 00 00 00 00 00 00 00 
  1257)     11699.8  Rx     18FF1EEF  8  00 1D 00 10 27 00 00 01 
  1258)     11700.9  Rx     1C01CE21  8  00 00 01 77 00 00 FF FF 
  1259)     11711.5  Rx     0CF00400  8  FF 7D 7D 00 00 FF 00 FF 
  1260)     11713.4  Rx     18FFB5D8  8  00 00 00 00 89 00 00 00 
  1261)     11721.3  Rx     18FFF955  8  FF 4D 8C 00 00 0F 0B 00 
  1262)     11722.0  Rx     18FFB7D8  8  00 00 00 00 00 00 00 00 
  1263)     11723.0  Rx     18F0010B  8  CF FF 30 FF FF 0D FF FF 
  1264)     11723.3  Rx     18FEBF0B  8  00 00 7D 7D 7D 7D FF FF 
  1265)     11724.5  Rx     18FFC821  8  FF FF FF FF F8 FF FF FF 
  1266)     11731.6  Rx     0CF00400  8  FF 7D 7D 00 00 FF 00 FF 
  1267)     11733.4  Rx     18FFB5D8  8  00 00 00 00 89 00 00 00 
  1268)     11734.4  Rx     18FF7005  8  F0 D0 FF FF 4F FF FC 01 
  1269)     11741.6  Rx     0CFE6CEE  8  FF FF FF FF FF FF 00 00 
  1270)     11744.2  Rx     0C010305  8  FF FF 7D FF FF BC FF 52 
  1271)     11751.6  Rx     0CF00400  8  FF 7D 7D 00 00 FF 00 FF 
  1272)     11753.4  Rx     18FFB5D8  8  00 00 00 00 89 00 00 00 
  1273)     11762.4  Rx     18FF2CF3  8  08 3C 0C C3 F0 FF 64 1A 
  1274)     11769.6  Rx     0CFF0013  8  42 3B 00 00 00 81 04 20 
  1275)     11771.3  Rx     18FF2EF3  8  00 00 00 00 44 05 96 03 
  1276)     11771.6  Rx     0CF00400  8  FF 7D 7D 00 00 FF 00 FF 
  1277)     11773.1  Rx     18FEBF0B  8  00 00 7D 7D 7D 7D FF FF 
  1278)     11773.5  Rx     18FFB5D8  8  00 00 00 00 8A 00 00 00 
  1279)     11774.5  Rx     18FFC821  8  FF FF FF FF F8 FF FF FF 
  1280)     11781.3  Rx     18FF32F3  8  05 14 10 27 DD 4C 2A 00 
  1281)     11784.4  Rx     18FF7005  8  F0 D0 FF FF 4F FF FC 01 
  1282)     11791.8  Rx     0C0228D0  8  00 00 00 00 02 00 27 28 
  1283)     11792.1  Rx     0CF00400  8  FF 7D 7D 00 00 FF 00 FF 
  1284)     11792.4  Rx     0CFE6CEE  8  FF FF FF FF FF FF 00 00 
  1285)     11792.8  Rx     0CFF04D0  8  00 00 00 00 00 00 00 19 
  1286)     11793.1  Rx     0CFF0AD0  8  00 00 00 00 FF 00 0C 19 
  1287)     11793.4  Rx     18FFB5D8  8  00 00 00 00 89 00 00 00 
  1288)     11794.2  Rx     0C010305  8  FF FF 7D FF FF BC FF 63 
  1289)     11795.0  Rx     18FE1264  8  29 00 8A 02 00 04 19 19 
  1290)     11796.3  Rx     1802DAD0  8  00 FF FF FF FF 00 00 19 
  1291)     11796.7  Rx     18FE64EF  8  00 00 00 00 00 00 00 00 
  1292)     11797.0  Rx     18FE74D0  8  00 00 00 00 00 00 00 00 
  1293)     11797.3  Rx     18FEF100  8  04 FF FF 00 FF FF FF FF 
  1294)     11797.6  Rx     18FF0BD0  8  FF FF 20 4E 00 FF FF B9 
  1295)     11798.0  Rx     18FF0CD0  8  68 20 00 00 00 00 90 01 
  1296)     11798.3  Rx     18FFCE21  8  82 C0 00 00 FF FF 00 FF 
  1297)     11798.6  Rx     18FF0ED0  8  FD 7F FD 7F FF 02 60 00 
  1298)     11798.9  Rx     18FF0FEF  8  22 00 00 00 00 00 00 00 
  1299)     11799.2  Rx     18FE0621  8  00 00 00 00 00 00 00 00 
  1300)     11799.5  Rx     18FF10EF  8  00 28 27 20 4E 20 4E 12 
  1301)     11799.8  Rx     18FF1EEF  8  00 1D 00 10 27 00 00 01 
  1302)     11800.7  Rx     1C01CE21  8  00 00 01 77 00 00 FF FF 
  1303)     11811.6  Rx     0CF00400  8  FF 7D 7D 00 00 FF 00 FF 
  1304)     11813.4  Rx     18FFB5D8  8  00 00 00 00 89 00 00 00 
  1305)     11823.0  Rx     18F0010B  8  CF FF 30 FF FF 0D FF FF 
  1306)     11823.3  Rx     18FEBF0B  8  00 00 7D 7D 7D 7D FF FF 
  1307)     11824.5  Rx     18FFC821  8  FF FF FF FF F8 FF FF FF 
  1308)     11831.6  Rx     0CF00400  8  FF 7D 7D 00 00 FF 00 FF 
  1309)     11833.4  Rx     18FFB5D8  8  00 00 00 00 89 00 00 00 
  1310)     11834.2  Rx     18FF7005  8  F0 D0 FF FF 4F FF FC 01 
  1311)     11841.6  Rx     0CFE6CEE  8  FF FF FF FF FF FF 00 00 
  1312)     11844.5  Rx     0C010305  8  FF FF 7D FF FF BC FF 74 
  1313)     11851.6  Rx     0CF00400  8  FF 7D 7D 00 00 FF 00 FF 
  1314)     11853.5  Rx     18FFB5D8  8  00 00 00 00 89 00 00 00 
  1315)     11862.3  Rx     18FF2CF3  8  08 3C 0C C3 F0 FF 64 1B 
  1316)     11869.7  Rx     0CFF0013  8  42 3B 00 00 00 81 04 20 
  1317)     11871.3  Rx     18FF2EF3  8  00 00 00 00 44 05 96 03 
  1318)     11871.6  Rx     0CF00400  8  FF 7D 7D 00 00 FF 00 FF 
  1319)     11873.0  Rx     18FEBF0B  8  00 00 7D 7D 7D 7D FF FF 
  1320)     11873.5  Rx     18FFB5D8  8  00 00 00 00 89 00 00 00 
  1321)     11874.4  Rx     18FFC821  8  FF FF FF FF F8 FF FF FF 
  1322)     11881.3  Rx     18FF32F3  8  06 14 10 27 DD 4C 2A 00 
  1323)     11884.2  Rx     18FF7005  8  F0 D0 FF FF 4F FF FC 01 
  1324)     11891.9  Rx     0C0228D0  8  00 00 00 00 02 00 27 27 
  1325)     11892.2  Rx     0CF00400  8  FF 7D 7D 00 00 FF 00 FF 
  1326)     11892.5  Rx     0CFE6CEE  8  FF FF FF FF FF FF 00 00 
  1327)     11892.8  Rx     0CFF04D0  8  00 00 00 00 00 00 00 1A 
  1328)     11893.2  Rx     0CFF0AD0  8  00 00 00 00 FF 00 0C 1A 
  1329)     11893.5  Rx     18FFB5D8  8  00 00 00 00 89 00 00 00 
  1330)     11894.5  Rx     0C010305  8  FF FF 7D FF FF BC FF 05 
  1331)     11895.0  Rx     18FE1264  8  29 00 8A 02 00 04 19 19 
  1332)     11896.3  Rx     1802DAD0  8  00 FF FF FF FF 00 00 1A 
  1333)     11896.7  Rx     18FE64EF  8  00 00 00 00 00 00 00 00 
  1334)     11897.1  Rx     18FE74D0  8  00 00 00 00 00 00 00 00 
  1335)     11897.4  Rx     18FEF100  8  04 FF FF 00 FF FF FF FF 
  1336)     11897.7  Rx     18FF0BD0  8  FF FF 20 4E 00 FF FF CA 
  1337)     11898.1  Rx     18FF0CD0  8  68 40 00 00 00 00 90 01 
  1338)     11898.4  Rx     18FFCE21  8  82 C0 00 00 FF FF 00 FF 
  1339)     11898.6  Rx     18FF0ED0  8  FD 7F FD 7F FF 02 60 00 
  1340)     11899.0  Rx     18FF0FEF  8  24 00 00 00 00 00 00 00 
  1341)     11899.3  Rx     18FF10EF  8  00 27 27 20 4E 20 4E 12 
  1342)     11899.6  Rx     18FE0621  8  00 00 00 00 00 00 00 00 
  1343)     11899.9  Rx     18FF1EEF  8  00 1D 00 10 27 00 00 01 
  1344)     11900.8  Rx     1C01CE21  8  00 00 01 77 00 00 FF FF 
  1345)     11911.6  Rx     0CF00400  8  FF 7D 7D 00 00 FF 00 FF 
  1346)     11912.1  Rx     18FFB8D8  8  00 00 00 00 00 00 00 00 
  1347)     11913.5  Rx     18FFB5D8  8  00 00 00 00 89 00 00 00 
  1348)     11914.1  Rx     18FFB9D8  8  00 00 25 08 00 00 28 09 
  1349)     11923.0  Rx     18F0010B  8  CF FF 30 FF FF 0D FF FF 
  1350)     11923.3  Rx     18FEBF0B  8  00 00 7D 7D 7D 7D FF FF 
  1351)     11924.4  Rx     18FFC821  8  FF FF FF FF F8 FF FF FF 
  1352)     11931.7  Rx     0CF00400  8  FF 7D 7D 00 00 FF 00 FF 
  1353)     11933.5  Rx     18FFB5D8  8  00 00 00 00 89 00 00 00 
  1354)     11934.0  Rx     18FFEB21  8  02 30 36 30 36 35 38 37 
  1355)     11934.3  Rx     18FFBBD8  8  00 00 00 00 00 00 00 00 
  1356)     11934.6  Rx     18FF7005  8  F0 D0 FF FF 4F FF FC 01 
  1357)     11936.1  Rx     18FFBCD8  8  00 00 23 08 00 00 28 09 
  1358)     11941.7  Rx     0CFE6CEE  8  FF FF FF FF FF FF 00 00 
  1359)     11944.5  Rx     0C010305  8  FF FF 7D FF FF BC FF 16 
  1360)     11951.7  Rx     0CF00400  8  FF 7D 7D 00 00 FF 00 FF 
  1361)     11953.5  Rx     18FFB5D8  8  00 00 00 00 89 00 00 00 
  1362)     11962.3  Rx     18FF2CF3  8  08 3C 0C C3 F0 FF 64 1C 
  1363)     11969.8  Rx     0CFF0013  8  42 3B 00 00 00 81 04 20 
  1364)     11971.3  Rx     18FF2EF3  8  00 00 00 00 44 05 96 03 
  1365)     11971.7  Rx     0CF00400  8  FF 7D 7D 00 00 FF 00 FF 
  1366)     11973.1  Rx     18FEBF0B  8  00 00 7D 7D 7D 7D FF FF 
  1367)     11973.5  Rx     18FFB5D8  8  00 00 00 00 89 00 00 00 
  1368)     11974.2  Rx     18FFC821  8  FF FF FF FF F8 FF FF FF 
  1369)     11981.2  Rx     18FF32F3  8  06 14 10 27 DD 4C 2A 00 
  1370)     11984.5  Rx     18FF7005  8  F0 D0 FF FF 4F FF FC 01 
  1371)     11991.9  Rx     0C0228D0  8  00 00 00 00 02 00 27 28 
  1372)     11992.2  Rx     0CF00400  8  FF 7D 7D 00 00 FF 00 FF 
  1373)     11992.5  Rx     0CFE6CEE  8  FF FF FF FF FF FF 00 00 
  1374)     11992.9  Rx     0CFF04D0  8  00 00 00 00 00 00 00 1B 
  1375)     11993.2  Rx     0CFF0AD0  8  00 00 00 00 FF 00 0C 1B 
  1376)     11993.5  Rx     18FFB5D8  8  00 00 00 00 89 00 00 00 
  1377)     11994.4  Rx     0C010305  8  FF FF 7D FF FF BC FF 37 
  1378)     11994.9  Rx     18FE1264  8  29 00 8A 02 00 04 19 19 
  1379)     11996.4  Rx     1802DAD0  8  00 FF FF FF FF 00 00 1B 
  1380)     11996.8  Rx     18FE64EF  8  00 00 00 00 00 00 00 00 
  1381)     11997.2  Rx     18FE74D0  8  00 00 00 00 00 00 00 00 
  1382)     11997.5  Rx     18FEF100  8  04 FF FF 00 FF FF FF FF 
  1383)     11997.8  Rx     18FF0BD0  8  FF FF 20 4E 00 FF FF DB 
  1384)     11998.1  Rx     18FFCE21  8  82 C0 00 00 FF FF 00 FF 
  1385)     11998.4  Rx     18FF0CD0  8  68 60 00 00 00 00 90 01 
  1386)     11998.7  Rx     18FF0ED0  8  FD 7F FD 7F FF 02 60 00 
  1387)     11999.1  Rx     18FF0FEF  8  26 00 00 00 00 00 00 00 
  1388)     11999.4  Rx     18FE0621  8  00 00 00 00 00 00 00 00 
  1389)     11999.6  Rx     18FF10EF  8  00 28 27 20 4E 20 4E 12 
  1390)     11999.9  Rx     18FF1EEF  8  00 1E 00 10 27 00 00 01 
  1391)     12000.6  Rx     1C01CE21  8  00 00 01 77 00 00 FF FF 
  1392)     12011.8  Rx     0CF00400  8  FF 7D 7D 00 00 FF 00 FF 
  1393)     12013.5  Rx     18FFB5D8  8  00 00 00 00 89 00 00 00 
  1394)     12022.0  Rx     18FFB7D8  8  00 00 00 00 00 00 00 00 
  1395)     12023.0  Rx     18F0010B  8  CF FF 30 FF FF 0D FF FF 
  1396)     12023.3  Rx     18FEBF0B  8  00 00 7D 7D 7D 7D FF FF 
  1397)     12024.5  Rx     18FFC821  8  FF FF FF FF F8 FF FF FF 
  1398)     12031.8  Rx     0CF00400  8  FF 7D 7D 00 00 FF 00 FF 
  1399)     12033.1  Rx     18FFB5D8  8  00 00 00 00 89 00 00 00 
  1400)     12034.4  Rx     18FF7005  8  F0 D0 FF FF 4F FF FC 01 
  1401)     12041.8  Rx     0CFE6CEE  8  FF FF FF FF FF FF 00 00 
  1402)     12044.5  Rx     0C010305  8  FF FF 7D FF FF BC FF 30 
  1403)     12047.8  Rx     18FFBE28  8  BD 11 00 00 00 00 05 38 
  1404)     12048.1  Rx     18FFBF28  8  00 00 89 00 40 06 00 00 
  1405)     12051.7  Rx     0CF00400  8  FF 7D 7D 00 00 FF 00 FF 
  1406)     12053.5  Rx     18FFB5D8  8  00 00 00 00 89 00 00 00 
  1407)     12062.4  Rx     18FF2CF3  8  08 3C 0C C3 F0 FF 64 1D 
  1408)     12062.7  Rx     18FF2DF3  8  F2 06 14 10 27 1C BF 54 
  1409)     12063.0  Rx     18FF2FF3  8  00 00 AD 01 00 00 1F FF 
  1410)     12063.3  Rx     18FF33F3  8  D7 0C D5 0C D6 0C D5 0C 
  1411)     12063.5  Rx     18FF98F3  8  27 27 27 27 27 27 27 27 
  1412)     12069.9  Rx     0CFF0013  8  42 3B 00 00 00 81 04 20 
  1413)     12071.3  Rx     18FF2EF3  8  00 00 00 00 44 05 96 03 
  1414)     12071.5  Rx     18FF30F3  8  81 02 D8 0C 51 02 D4 0C 
  1415)     12071.8  Rx     1801D0F9  8  00 00 00 00 00 00 00 00 
  1416)     12072.1  Rx     0CF00400  8  FF 7D 7D 00 00 FF 00 FF 
  1417)     12072.4  Rx     18FF34F3  8  D6 0C D6 0C D6 0C D6 0C 
  1418)     12073.1  Rx     18FEBF0B  8  00 00 7D 7D 7D 7D FF FF 
  1419)     12073.4  Rx     18FFB5D8  8  00 00 00 00 89 00 00 00 
  1420)     12074.5  Rx     18FFC821  8  FF FF FF FF F8 FF FF FF 
  1421)     12081.2  Rx     18FF31F3  8  B1 00 28 11 00 27 FF FF 
  1422)     12081.5  Rx     18FF32F3  8  05 14 10 27 DD 4C 2A 00 
  1423)     12081.8  Rx     18FFEAF3  8  9C 00 12 00 00 00 B2 00 
  1424)     12082.1  Rx     18FF35F3  8  D6 0C D6 0C D5 0C D5 0C 
  1425)     12082.4  Rx     18FF99F3  8  27 27 28 27 27 27 28 28 
  1426)     12084.2  Rx     18FF7005  8  F0 D0 FF FF 4F FF FC 01 
  1427)     12091.2  Rx     18FFEBF3  8  03 44 48 53 53 33 31 37 
  1428)     12091.5  Rx     18FF36F3  8  D5 0C D7 0C D5 0C D5 0C 
  1429)     12092.0  Rx     0C0228D0  8  00 00 00 00 02 00 27 28 
  1430)     12092.6  Rx     0CF00400  8  FF 7D 7D 00 00 FF 00 FF 
  1431)     12093.0  Rx     0CFE6CEE  8  FF FF FF FF FF FF 00 00 
  1432)     12093.3  Rx     0CFF04D0  8  00 00 00 00 00 00 00 1C 
  1433)     12093.6  Rx     18FFB5D8  8  00 00 00 00 89 00 00 00 
  1434)     12094.5  Rx     0C010305  8  FF FF 7D FF FF BC FF 41 
  1435)     12094.9  Rx     18FE1264  8  29 00 8A 02 00 04 1A 19 
  1436)     12096.5  Rx     0CFF0AD0  8  00 00 00 00 FF 00 0C 1C 
  1437)     12096.9  Rx     1802DAD0  8  00 FF FF FF FF 00 00 1C 
  1438)     12097.2  Rx     18FE64EF  8  00 00 00 00 00 00 00 00 
  1439)     12097.5  Rx     18FE74D0  8  00 00 00 00 00 00 00 00 
  1440)     12097.9  Rx     18FEF100  8  04 FF FF 00 FF FF FF FF 
  1441)     12098.2  Rx     18FF0BD0  8  FF FF 20 4E 00 FF FF EC 
  1442)     12098.6  Rx     18FF0CD0  8  68 80 00 00 00 00 90 01 
  1443)     12098.9  Rx     18FFCE21  8  82 C0 00 00 FF FF 00 FF 
  1444)     12099.1  Rx     18FF0ED0  8  FD 7F FD 7F FF 02 60 00 
  1445)     12099.5  Rx     18FF0FEF  8  20 00 00 00 00 00 00 00 
  1446)     12099.8  Rx     18FE0621  8  00 00 00 00 00 00 00 00 
  1447)     12100.0  Rx     18FF10EF  8  00 28 27 20 4E 20 4E 12 
  1448)     12100.3  Rx     18FF1EEF  8  00 1D 00 10 27 00 00 01 
  1449)     12101.0  Rx     1C01CE21  8  00 00 01 77 00 00 FF FF 
  1450)     12101.3  Rx     18FFECF3  8  43 45 42 2D 42 37 30 48 
  1451)     12101.6  Rx     18FF37F3  8  D5 0C D6 0C D6 0C D5 0C 
  1452)     12101.9  Rx     18FF9AF3  8  28 27 FF FF FF FF FF FF 
  1453)     12111.2  Rx     18FF38F3  8  D6 0C D5 0C D6 0C D5 0C 
  1454)     12111.8  Rx     0CF00400  8  FF 7D 7D 00 00 FF 00 FF 
  1455)     12113.5  Rx     18FFB5D8  8  00 00 00 00 89 00 00 00 
  1456)     12121.2  Rx     18FF39F3  8  D5 0C D5 0C D6 0C D5 0C 
  1457)     12123.1  Rx     18F0010B  8  CF FF 30 FF FF 0D FF FF 
  1458)     12123.4  Rx     18FEBF0B  8  00 00 7D 7D 7D 7D FF FF 
  1459)     12124.4  Rx     18FFC821  8  FF FF FF FF F8 FF FF FF 
  1460)     12131.3  Rx     18FF3AF3  8  D6 0C D5 0C D6 0C D5 0C 
  1461)     12131.8  Rx     0CF00400  8  FF 7D 7D 00 00 FF 00 FF 
  1462)     12133.5  Rx     18FFB5D8  8  00 00 00 00 89 00 00 00 
  1463)     12134.5  Rx     18FF7005  8  F0 D0 FF FF 4F FF FC 01 
  1464)     12141.2  Rx     18FF3BF3  8  D5 0C D5 0C D5 0C D6 0C 
  1465)     12141.9  Rx     0CFE6CEE  8  FF FF FF FF FF FF 00 00 
  1466)     12144.5  Rx     0C010305  8  FF FF 7D FF FF BC FF 52 
  1467)     12151.3  Rx     18FF3CF3  8  D5 0C D5 0C D4 0C D8 0C 
  1468)     12151.9  Rx     0CF00400  8  FF 7D 7D 00 00 FF 00 FF 
  1469)     12153.5  Rx     18FFB5D8  8  00 00 00 00 89 00 00 00 
  1470)     12162.3  Rx     18FF2CF3  8  08 3C 0C C3 F0 FF 64 1E 
  1471)     12162.6  Rx     18FF3DF3  8  D6 0C D6 0C D6 0C D6 0C 
  1472)     12170.1  Rx     18FECA13  8  00 00 00 00 00 00 00 00 
  1473)     12170.4  Rx     0CFF0013  8  42 3B 00 00 00 81 04 20 
  1474)     12170.6  Rx     18FFEB13  8  03 30 30 30 30 30 30 30 
  1475)     12171.2  Rx     18FF2EF3  8  00 00 00 00 44 05 96 03 
  1476)     12171.5  Rx     18FF3EF3  8  D6 0C D6 0C D6 0C D6 0C 
  1477)     12171.9  Rx     0CF00400  8  FF 7D 7D 00 00 FF 00 FF 
  1478)     12173.1  Rx     18FEBF0B  8  00 00 7D 7D 7D 7D FF FF 
  1479)     12173.5  Rx     18FFB5D8  8  00 00 00 00 89 00 00 00 
  1480)     12174.2  Rx     18FFC821  8  FF FF FF FF F8 FF FF FF 
  1481)     12181.2  Rx     18FF32F3  8  06 14 10 27 DD 4C 2A 00 
  1482)     12181.5  Rx     18FF3FF3  8  D6 0C D5 0C D5 0C D4 0C 
  1483)     12182.0  Rx     0CFFC1D0  8  00 EA 01 00 00 00 08 2D 
  1484)     12182.6  Rx     18FEF500  8  64 00 00 E0 21 00 00 00 
  1485)     12182.9  Rx     18FF03FD  8  00 00 00 00 00 00 00 FF 
