;$FILEVERSION=1.1
;$STARTTIME=46004.4864457292
;
;   Start time: 12/13/2025 11:40:28.911.0
;   Generated by PCAN-View v5.3.2.952
;
;   Message Number
;   |         Time Offset (ms)
;   |         |        Type
;   |         |        |        ID (hex)
;   |         |        |        |     Data Length
;   |         |        |        |     |   Data Bytes (hex) ...
;   |         |        |        |     |   |
;---+--   ----+----  --+--  ----+---  +  -+ -- -- -- -- -- -- --
     1)         6.3  Rx         07C1  8  0C 18 00 0C FF 00 01 00 
     2)        66.0  Rx         003C  8  AF A1 02 12 01 00 2A FF 
     3)        67.0  Rx         0130  5  F7 FF FF FF FF 
     4)        75.8  Rx         0799  7  1B 01 16 04 12 03 0A 
     5)       165.9  Rx         003C  8  48 A2 02 12 01 00 2A FF 
     6)       166.6  Rx         0130  5  F7 FF FF FF FF 
     7)       266.0  Rx         003C  8  15 A3 02 12 01 00 2A FF 
     8)       266.5  Rx         0130  5  F7 FF FF FF FF 
     9)       366.0  Rx         003C  8  9B A4 02 12 01 00 2A FF 
    10)       367.0  Rx         0130  5  F7 FF FF FF FF 
    11)       465.9  Rx         003C  8  C6 A5 02 12 01 00 2A FF 
    12)       466.5  Rx         0130  5  F7 FF FF FF FF 
    13)       565.9  Rx         003C  8  21 A6 02 12 01 00 2A FF 
    14)       566.5  Rx         0130  5  F7 FF FF FF FF 
    15)       576.3  Rx         0799  7  1D 01 16 04 10 03 0A 
    16)       665.9  Rx         003C  8  7C A7 02 12 01 00 2A FF 
    17)       666.9  Rx         0130  5  F7 FF FF FF FF 
    18)       765.9  Rx         003C  8  20 A8 02 12 01 00 2A FF 
    19)       766.6  Rx         0130  5  F7 FF FF FF FF 
    20)       865.9  Rx         003C  8  7D A9 02 12 01 00 2A FF 
    21)       866.6  Rx         0130  5  F7 FF FF FF FF 
    22)       965.9  Rx         003C  8  9A AA 02 12 01 00 2A FF 
    23)       966.9  Rx         0130  5  F7 FF FF FF FF 
    24)      1006.2  Rx         07C1  8  0C 18 00 0C FF 00 01 00 
    25)      1065.9  Rx         003C  8  C7 AB 02 12 01 00 2A FF 
    26)      1066.5  Rx         0130  5  F7 FF FF FF FF 
    27)      1083.3  Rx         0799  7  1B 01 16 04 12 03 0A 
    28)      1165.9  Rx         003C  8  49 AC 02 12 01 00 2A FF 
    29)      1166.5  Rx         0130  5  F7 FF FF FF FF 
    30)      1265.9  Rx         003C  8  14 AD 02 12 01 00 2A FF 
    31)      1266.9  Rx         0130  5  F7 FF FF FF FF 
    32)      1365.8  Rx         003C  8  F3 AE 02 12 01 00 2A FF 
    33)      1366.6  Rx         0130  5  F7 FF FF FF FF 
    34)      1465.9  Rx         003C  8  F2 A0 02 12 01 00 2A FF 
    35)      1466.6  Rx         0130  5  F7 FF FF FF FF 
    36)      1565.9  Rx         003C  8  AF A1 02 12 01 00 2A FF 
    37)      1566.9  Rx         0130  5  F7 FF FF FF FF 
    38)      1586.0  Rx         0799  7  1D 01 16 04 10 03 0A 
    39)      1665.9  Rx         003C  8  48 A2 02 12 01 00 2A FF 
    40)      1666.6  Rx         0130  5  F7 FF FF FF FF 
    41)      1765.9  Rx         003C  8  15 A3 02 12 01 00 2A FF 
    42)      1766.6  Rx         0130  5  F7 FF FF FF FF 
    43)      1865.9  Rx         003C  8  9B A4 02 12 01 00 2A FF 
    44)      1866.9  Rx         0130  5  F7 FF FF FF FF 
    45)      1965.9  Rx         003C  8  C6 A5 02 12 01 00 2A FF 
    46)      1966.6  Rx         0130  5  F7 FF FF FF FF 
    47)      2006.3  Rx         07C1  8  0C 18 00 0C FF 00 01 00 
    48)      2065.9  Rx         003C  8  21 A6 02 12 01 00 2A FF 
    49)      2066.8  Rx         0130  5  F7 FF FF FF FF 
    50)      2096.3  Rx         0799  7  1B 01 16 04 11 03 0A 
    51)      2165.9  Rx         003C  8  7C A7 02 12 01 00 2A FF 
    52)      2166.9  Rx         0130  5  F7 FF FF FF FF 
    53)      2266.0  Rx         003C  8  20 A8 02 12 01 00 2A FF 
    54)      2266.6  Rx         0130  5  F7 FF FF FF FF 
    55)      2365.9  Rx         003C  8  7D A9 02 12 01 00 2A FF 
    56)      2366.6  Rx         0130  5  F7 FF FF FF FF 
    57)      2466.0  Rx         003C  8  9A AA 02 12 01 00 2A FF 
    58)      2467.0  Rx         0130  5  F7 FF FF FF FF 
    59)      2565.9  Rx         003C  8  C7 AB 02 12 01 00 2A FF 
    60)      2566.5  Rx         0130  5  F7 FF FF FF FF 
    61)      2602.3  Rx         0799  7  1D 01 16 04 10 03 0A 
    62)      2666.0  Rx         003C  8  49 AC 02 12 01 00 2A FF 
    63)      2666.6  Rx         0130  5  F7 FF FF FF FF 
    64)      2765.9  Rx         003C  8  14 AD 02 12 01 00 2A FF 
    65)      2766.9  Rx         0130  5  F7 FF FF FF FF 
    66)      2866.0  Rx         003C  8  F3 AE 02 12 01 00 2A FF 
    67)      2866.6  Rx         0130  5  F7 FF FF FF FF 
    68)      2965.8  Rx         003C  8  F2 A0 02 12 01 00 2A FF 
    69)      2966.4  Rx         0130  5  F7 FF FF FF FF 
    70)      3006.2  Rx         07C1  8  0C 18 00 0C FF 00 01 00 
    71)      3065.9  Rx         003C  8  AF A1 02 12 01 00 2A FF 
    72)      3066.9  Rx         0130  5  F7 FF FF FF FF 
    73)      3111.6  Rx         0799  7  1A 01 16 04 12 03 0A 
    74)      3165.9  Rx         003C  8  48 A2 02 12 01 00 2A FF 
    75)      3166.5  Rx         0130  5  F7 FF FF FF FF 
    76)      3265.8  Rx         003C  8  15 A3 02 12 01 00 2A FF 
    77)      3266.6  Rx         0130  5  F7 FF FF FF FF 
    78)      3365.8  Rx         003C  8  9B A4 02 12 01 00 2A FF 
    79)      3366.9  Rx         0130  5  F7 FF FF FF FF 
    80)      3465.9  Rx         003C  8  C6 A5 02 12 01 00 2A FF 
    81)      3466.6  Rx         0130  5  F7 FF FF FF FF 
    82)      3565.8  Rx         003C  8  21 A6 02 12 01 00 2A FF 
    83)      3566.4  Rx         0130  5  F7 FF FF FF FF 
    84)      3611.3  Rx         0799  7  1D 01 16 04 0F 03 0A 
    85)      3665.9  Rx         003C  8  7C A7 02 12 01 00 2A FF 
    86)      3666.9  Rx         0130  5  F7 FF FF FF FF 
    87)      3765.9  Rx         003C  8  20 A8 02 12 01 00 2A FF 
    88)      3766.7  Rx         0130  5  F7 FF FF FF FF 
    89)      3865.9  Rx         003C  8  7D A9 02 12 01 00 2A FF 
    90)      3866.4  Rx         0130  5  F7 FF FF FF FF 
    91)      3965.9  Rx         003C  8  9A AA 02 12 01 00 2A FF 
    92)      3966.9  Rx         0130  5  F7 FF FF FF FF 
    93)      4006.2  Rx         07C1  8  0C 18 00 0C FF 00 01 00 
    94)      4065.9  Rx         003C  8  C7 AB 02 12 01 00 2A FF 
    95)      4066.7  Rx         0130  5  F7 FF FF FF FF 
    96)      4115.8  Rx         0799  7  1B 01 16 04 12 03 0A 
    97)      4165.8  Rx         003C  8  49 AC 02 12 01 00 2A FF 
    98)      4166.4  Rx         0130  5  F7 FF FF FF FF 
    99)      4265.8  Rx         003C  8  14 AD 02 12 01 00 2A FF 
   100)      4266.9  Rx         0130  5  F7 FF FF FF FF 
   101)      4365.9  Rx         003C  8  F3 AE 02 12 01 00 2A FF 
   102)      4366.4  Rx         0130  5  F7 FF FF FF FF 
   103)      4465.9  Rx         003C  8  F2 A0 02 12 01 00 2A FF 
   104)      4466.6  Rx         0130  5  F7 FF FF FF FF 
   105)      4565.8  Rx         003C  8  AF A1 02 12 01 00 2A FF 
   106)      4566.9  Rx         0130  5  F7 FF FF FF FF 
   107)      4615.5  Rx         0799  7  1C 01 16 04 11 03 0A 
   108)      4665.9  Rx         003C  8  48 A2 02 12 01 00 2A FF 
   109)      4666.6  Rx         0130  5  F7 FF FF FF FF 
   110)      4765.9  Rx         003C  8  15 A3 02 12 01 00 2A FF 
   111)      4766.5  Rx         0130  5  F7 FF FF FF FF 
   112)      4865.9  Rx         003C  8  9B A4 02 12 01 00 2A FF 
   113)      4866.9  Rx         0130  5  F7 FF FF FF FF 
   114)      4965.8  Rx         003C  8  C6 A5 02 12 01 00 2A FF 
   115)      4966.5  Rx         0130  5  F7 FF FF FF FF 
   116)      5006.2  Rx         07C1  8  0C 18 00 0C FF 00 01 00 
   117)      5065.8  Rx         003C  8  21 A6 02 12 01 00 2A FF 
   118)      5066.6  Rx         0130  5  F7 FF FF FF FF 
   119)      5132.6  Rx         0799  7  1B 01 16 04 11 03 0A 
   120)      5165.9  Rx         003C  8  7C A7 02 12 01 00 2A FF 
   121)      5166.9  Rx         0130  5  F7 FF FF FF FF 
   122)      5265.9  Rx         003C  8  20 A8 02 12 01 00 2A FF 
   123)      5266.6  Rx         0130  5  F7 FF FF FF FF 
   124)      5365.8  Rx         003C  8  7D A9 02 12 01 00 2A FF 
   125)      5366.4  Rx         0130  5  F7 FF FF FF FF 
   126)      5465.9  Rx         003C  8  9A AA 02 12 01 00 2A FF 
   127)      5466.9  Rx         0130  5  F7 FF FF FF FF 
   128)      5565.8  Rx         003C  8  C7 AB 02 12 01 00 2A FF 
   129)      5566.4  Rx         0130  5  F7 FF FF FF FF 
   130)      5641.3  Rx         0799  7  1D 01 16 04 10 03 0A 
   131)      5665.8  Rx         003C  8  49 AC 02 12 01 00 2A FF 
   132)      5666.4  Rx         0130  5  F7 FF FF FF FF 
   133)      5765.8  Rx         003C  8  14 AD 02 12 01 00 2A FF 
   134)      5766.9  Rx         0130  5  F7 FF FF FF FF 
   135)      5865.9  Rx         003C  8  F3 AE 02 12 01 00 2A FF 
   136)      5866.5  Rx         0130  5  F7 FF FF FF FF 
   137)      5965.9  Rx         003C  8  F2 A0 02 12 01 00 2A FF 
   138)      5966.5  Rx         0130  5  F7 FF FF FF FF 
   139)      6006.2  Rx         07C1  8  0C 18 00 0C FF 00 01 00 
   140)      6065.9  Rx         003C  8  AF A1 02 12 01 00 2A FF 
   141)      6066.9  Rx         0130  5  F7 FF FF FF FF 
   142)      6141.4  Rx         0799  7  1B 01 16 04 12 03 0A 
   143)      6165.8  Rx         003C  8  48 A2 02 12 01 00 2A FF 
   144)      6166.4  Rx         0130  5  F7 FF FF FF FF 
   145)      6265.8  Rx         003C  8  15 A3 02 12 01 00 2A FF 
   146)      6266.4  Rx         0130  5  F7 FF FF FF FF 
   147)      6366.0  Rx         003C  8  9B A4 02 12 01 00 2A FF 
   148)      6366.9  Rx         0130  5  F7 FF FF FF FF 
   149)      6465.9  Rx         003C  8  C6 A5 02 12 01 00 2A FF 
   150)      6466.5  Rx         0130  5  F7 FF FF FF FF 
   151)      6565.9  Rx         003C  8  21 A6 02 12 01 00 2A FF 
   152)      6566.4  Rx         0130  5  F7 FF FF FF FF 
   153)      6641.3  Rx         0799  7  1D 01 16 04 10 03 0A 
   154)      6665.8  Rx         003C  8  7C A7 02 12 01 00 2A FF 
   155)      6666.9  Rx         0130  5  F7 FF FF FF FF 
   156)      6765.9  Rx         003C  8  20 A8 02 12 01 00 2A FF 
   157)      6766.5  Rx         0130  5  F7 FF FF FF FF 
   158)      6865.9  Rx         003C  8  7D A9 02 12 01 00 2A FF 
   159)      6866.6  Rx         0130  5  F7 FF FF FF FF 
   160)      6965.9  Rx         003C  8  9A AA 02 12 01 00 2A FF 
   161)      6966.6  Rx         0130  5  F7 FF FF FF FF 
   162)      7006.2  Rx         07C1  8  0C 18 00 0C FF 00 01 00 
   163)      7065.8  Rx         003C  8  C7 AB 02 12 01 00 2A FF 
   164)      7066.7  Rx         0130  5  F7 FF FF FF FF 
   165)      7146.8  Rx         0799  7  1A 01 16 04 12 03 0A 
   166)      7165.8  Rx         003C  8  49 AC 02 12 01 00 2A FF 
   167)      7166.3  Rx         0130  5  F7 FF FF FF FF 
   168)      7265.8  Rx         003C  8  14 AD 02 12 01 00 2A FF 
   169)      7266.9  Rx         0130  5  F7 FF FF FF FF 
   170)      7365.8  Rx         003C  8  F3 AE 02 12 01 00 2A FF 
   171)      7366.4  Rx         0130  5  F7 FF FF FF FF 
   172)      7465.9  Rx         003C  8  F2 A0 02 12 01 00 2A FF 
   173)      7466.6  Rx         0130  5  F7 FF FF FF FF 
   174)      7565.9  Rx         003C  8  AF A1 02 12 01 00 2A FF 
   175)      7566.8  Rx         0130  5  F7 FF FF FF FF 
   176)      7651.3  Rx         0799  7  1D 01 16 04 10 03 0A 
   177)      7665.9  Rx         003C  8  48 A2 02 12 01 00 2A FF 
   178)      7666.2  Rx         0130  5  F7 FF FF FF FF 
   179)      7765.8  Rx         003C  8  15 A3 02 12 01 00 2A FF 
   180)      7766.2  Rx         0130  5  F7 FF FF FF FF 
   181)      7865.8  Rx         003C  8  9B A4 02 12 01 00 2A FF 
   182)      7866.7  Rx         0130  5  F7 FF FF FF FF 
   183)      7965.8  Rx         003C  8  C6 A5 02 12 01 00 2A FF 
   184)      7966.2  Rx         0130  5  F7 FF FF FF FF 
   185)      8007.2  Rx         07C1  8  0C 18 00 0C FF 00 01 00 
   186)      8065.8  Rx         003C  8  21 A6 02 12 01 00 2A FF 
   187)      8066.2  Rx         0130  5  F7 FF FF FF FF 
   188)      8151.9  Rx         0799  7  1B 01 16 04 11 03 0A 
   189)      8165.9  Rx         003C  8  7C A7 02 12 01 00 2A FF 
   190)      8166.4  Rx         0130  5  F7 FF FF FF FF 
   191)      8265.8  Rx         003C  8  20 A8 02 12 01 00 2A FF 
   192)      8266.2  Rx         0130  5  F7 FF FF FF FF 
   193)      8365.8  Rx         003C  8  7D A9 02 12 01 00 2A FF 
   194)      8366.2  Rx         0130  5  F7 FF FF FF FF 
   195)      8465.9  Rx         003C  8  9A AA 02 12 01 00 2A FF 
   196)      8466.4  Rx         0130  5  F7 FF FF FF FF 
   197)      8565.8  Rx         003C  8  C7 AB 02 12 01 00 2A FF 
   198)      8566.2  Rx         0130  5  F7 FF FF FF FF 
   199)      8652.0  Rx         0799  7  1C 01 16 04 11 03 0A 
   200)      8665.8  Rx         003C  8  49 AC 02 12 01 00 2A FF 
   201)      8666.2  Rx         0130  5  F7 FF FF FF FF 
   202)      8765.8  Rx         003C  8  14 AD 02 12 01 00 2A FF 
   203)      8766.6  Rx         0130  5  F7 FF FF FF FF 
   204)      8865.8  Rx         003C  8  F3 AE 02 12 01 00 2A FF 
   205)      8866.2  Rx         0130  5  F7 FF FF FF FF 
   206)      8965.8  Rx         003C  8  F2 A0 02 12 01 00 2A FF 
   207)      8966.2  Rx         0130  5  F7 FF FF FF FF 
   208)      9007.2  Rx         07C1  8  0C 18 00 0C FF 00 01 00 
   209)      9065.9  Rx         003C  8  AF A1 02 12 01 00 2A FF 
   210)      9066.4  Rx         0130  5  F7 FF FF FF FF 
   211)      9156.6  Rx         0799  7  1A 01 16 04 12 03 0A 
   212)      9165.8  Rx         003C  8  48 A2 02 12 01 00 2A FF 
   213)      9166.2  Rx         0130  5  F7 FF FF FF FF 
   214)      9265.8  Rx         003C  8  15 A3 02 12 01 00 2A FF 
   215)      9266.2  Rx         0130  5  F7 FF FF FF FF 
   216)      9365.8  Rx         003C  8  9B A4 02 12 01 00 2A FF 
   217)      9366.3  Rx         0130  5  F7 FF FF FF FF 
   218)      9465.8  Rx         003C  8  C6 A5 02 12 01 00 2A FF 
   219)      9466.3  Rx         0130  5  F7 FF FF FF FF 
   220)      9565.8  Rx         003C  8  21 A6 02 12 01 00 2A FF 
   221)      9566.2  Rx         0130  5  F7 FF FF FF FF 
   222)      9656.4  Rx         0799  7  1D 01 16 04 0F 03 0A 
   223)      9665.8  Rx         003C  8  7C A7 02 12 01 00 2A FF 
   224)      9666.6  Rx         0130  5  F7 FF FF FF FF 
   225)      9765.8  Rx         003C  8  20 A8 02 12 01 00 2A FF 
   226)      9766.2  Rx         0130  5  F7 FF FF FF FF 
   227)      9865.8  Rx         003C  8  7D A9 02 12 01 00 2A FF 
   228)      9866.2  Rx         0130  5  F7 FF FF FF FF 
   229)      9965.8  Rx         003C  8  9A AA 02 12 01 00 2A FF 
   230)      9966.6  Rx         0130  5  F7 FF FF FF FF 
   231)     10007.1  Rx         07C1  8  0C 18 00 0C FF 00 01 00 
   232)     10065.8  Rx         003C  8  C7 AB 02 12 01 00 2A FF 
   233)     10066.2  Rx         0130  5  F7 FF FF FF FF 
   234)     10165.7  Rx         003C  8  49 AC 02 12 01 00 2A FF 
   235)     10166.2  Rx         0130  5  F7 FF FF FF FF 
   236)     10185.7  Rx         0799  7  1B 01 16 04 12 03 0A 
   237)     10265.8  Rx         003C  8  14 AD 02 12 01 00 2A FF 
   238)     10266.6  Rx         0130  5  F7 FF FF FF FF 
   239)     10365.8  Rx         003C  8  F3 AE 02 12 01 00 2A FF 
   240)     10366.2  Rx         0130  5  F7 FF FF FF FF 
   241)     10465.8  Rx         003C  8  F2 A0 02 12 01 00 2A FF 
   242)     10466.2  Rx         0130  5  F7 FF FF FF FF 
   243)     10565.8  Rx         003C  8  AF A1 02 12 01 00 2A FF 
   244)     10566.6  Rx         0130  5  F7 FF FF FF FF 
   245)     10665.8  Rx         003C  8  48 A2 02 12 01 00 2A FF 
   246)     10666.2  Rx         0130  5  F7 FF FF FF FF 
   247)     10701.7  Rx         0799  7  1D 01 16 04 10 03 0A 
   248)     10765.8  Rx         003C  8  15 A3 02 12 01 00 2A FF 
   249)     10766.2  Rx         0130  5  F7 FF FF FF FF 
   250)     10865.8  Rx         003C  8  9B A4 02 12 01 00 2A FF 
   251)     10866.6  Rx         0130  5  F7 FF FF FF FF 
   252)     10965.8  Rx         003C  8  C6 A5 02 12 01 00 2A FF 
   253)     10966.2  Rx         0130  5  F7 FF FF FF FF 
   254)     11007.1  Rx         07C1  8  0C 18 00 0C FF 00 01 00 
   255)     11065.8  Rx         003C  8  21 A6 02 12 01 00 2A FF 
   256)     11066.2  Rx         0130  5  F7 FF FF FF FF 
   257)     11165.8  Rx         003C  8  7C A7 02 12 01 00 2A FF 
   258)     11166.6  Rx         0130  5  F7 FF FF FF FF 
   259)     11203.4  Rx         0799  7  1B 01 16 04 11 03 0A 
   260)     11265.8  Rx         003C  8  20 A8 02 12 01 00 2A FF 
   261)     11266.2  Rx         0130  5  F7 FF FF FF FF 
   262)     11365.7  Rx         003C  8  7D A9 02 12 01 00 2A FF 
   263)     11366.1  Rx         0130  5  F7 FF FF FF FF 
   264)     11465.8  Rx         003C  8  9A AA 02 12 01 00 2A FF 
   265)     11466.5  Rx         0130  5  F7 FF FF FF FF 
   266)     11565.7  Rx         003C  8  C7 AB 02 12 01 00 2A FF 
   267)     11566.2  Rx         0130  5  F7 FF FF FF FF 
   268)     11665.8  Rx         003C  8  49 AC 02 12 01 00 2A FF 
   269)     11666.2  Rx         0130  5  F7 FF FF FF FF 
   270)     11703.3  Rx         0799  7  1D 01 16 04 10 03 0A 
   271)     11765.8  Rx         003C  8  14 AD 02 12 01 00 2A FF 
   272)     11766.6  Rx         0130  5  F7 FF FF FF FF 
   273)     11865.8  Rx         003C  8  F3 AE 02 12 01 00 2A FF 
   274)     11866.2  Rx         0130  5  F7 FF FF FF FF 
   275)     11965.8  Rx         003C  8  F2 A0 02 12 01 00 2A FF 
   276)     11966.2  Rx         0130  5  F7 FF FF FF FF 
   277)     12007.2  Rx         07C1  8  0C 18 00 0C FF 00 01 00 
   278)     12065.8  Rx         003C  8  AF A1 02 12 01 00 2A FF 
   279)     12066.5  Rx         0130  5  F7 FF FF FF FF 
   280)     12165.8  Rx         003C  8  48 A2 02 12 01 00 2A FF 
   281)     12166.2  Rx         0130  5  F7 FF FF FF FF 
   282)     12208.3  Rx         0799  7  1A 01 16 04 12 03 0A 
   283)     12265.8  Rx         003C  8  15 A3 02 12 01 00 2A FF 
   284)     12266.1  Rx         0130  5  F7 FF FF FF FF 
   285)     12365.8  Rx         003C  8  9B A4 02 12 01 00 2A FF 
   286)     12366.3  Rx         0130  5  F7 FF FF FF FF 
   287)     12465.8  Rx         003C  8  C6 A5 02 12 01 00 2A FF 
   288)     12466.2  Rx         0130  5  F7 FF FF FF FF 
   289)     12565.7  Rx         003C  8  21 A6 02 12 01 00 2A FF 
   290)     12566.1  Rx         0130  5  F7 FF FF FF FF 
   291)     12665.8  Rx         003C  8  7C A7 02 12 01 00 2A FF 
   292)     12666.6  Rx         0130  5  F7 FF FF FF FF 
   293)     12710.3  Rx         0799  7  1D 01 16 04 0F 03 0A 
   294)     12765.7  Rx         003C  8  20 A8 02 12 01 00 2A FF 
   295)     12766.1  Rx         0130  5  F7 FF FF FF FF 
   296)     12865.7  Rx         003C  8  7D A9 02 12 01 00 2A FF 
   297)     12866.2  Rx         0130  5  F7 FF FF FF FF 
   298)     12965.7  Rx         003C  8  9A AA 02 12 01 00 2A FF 
   299)     12966.5  Rx         0130  5  F7 FF FF FF FF 
   300)     13007.1  Rx         07C1  8  0C 18 00 0C FF 00 01 00 
   301)     13065.7  Rx         003C  8  C7 AB 02 12 01 00 2A FF 
   302)     13066.2  Rx         0130  5  F7 FF FF FF FF 
   303)     13165.7  Rx         003C  8  49 AC 02 12 01 00 2A FF 
   304)     13166.0  Rx         0130  5  F7 FF FF FF FF 
   305)     13210.2  Rx         0799  7  1B 01 16 04 12 03 0A 
   306)     13265.7  Rx         003C  8  14 AD 02 12 01 00 2A FF 
   307)     13266.7  Rx         0130  5  F7 FF FF FF FF 
   308)     13365.6  Rx         003C  8  F3 AE 02 12 01 00 2A FF 
   309)     13366.0  Rx         0130  5  F7 FF FF FF FF 
   310)     13465.8  Rx         003C  8  F2 A0 02 12 01 00 2A FF 
   311)     13466.1  Rx         0130  5  F7 FF FF FF FF 
   312)     13565.7  Rx         003C  8  AF A1 02 12 01 00 2A FF 
   313)     13566.3  Rx         0130  5  F7 FF FF FF FF 
   314)     13665.7  Rx         003C  8  48 A2 02 12 01 00 2A FF 
   315)     13666.0  Rx         0130  5  F7 FF FF FF FF 
   316)     13716.3  Rx         0799  7  1C 01 16 04 11 03 0A 
   317)     13765.7  Rx         003C  8  15 A3 02 12 01 00 2A FF 
   318)     13766.0  Rx         0130  5  F7 FF FF FF FF 
   319)     13865.7  Rx         003C  8  9B A4 02 12 01 00 2A FF 
   320)     13866.3  Rx         0130  5  F7 FF FF FF FF 
   321)     13965.7  Rx         003C  8  C6 A5 02 12 01 00 2A FF 
   322)     13966.0  Rx         0130  5  F7 FF FF FF FF 
   323)     14007.1  Rx         07C1  8  0C 18 00 0C FF 00 01 00 
   324)     14065.7  Rx         003C  8  21 A6 02 12 01 00 2A FF 
   325)     14066.0  Rx         0130  5  F7 FF FF FF FF 
   326)     14165.7  Rx         003C  8  7C A7 02 12 01 00 2A FF 
   327)     14166.3  Rx         0130  5  F7 FF FF FF FF 
   328)     14216.7  Rx         0799  7  1B 01 16 04 11 03 0A 
   329)     14265.7  Rx         003C  8  20 A8 02 12 01 00 2A FF 
   330)     14266.1  Rx         0130  5  F7 FF FF FF FF 
   331)     14365.7  Rx         003C  8  7D A9 02 12 01 00 2A FF 
   332)     14366.0  Rx         0130  5  F7 FF FF FF FF 
   333)     14465.7  Rx         003C  8  9A AA 02 12 01 00 2A FF 
   334)     14466.3  Rx         0130  5  F7 FF FF FF FF 
   335)     14565.7  Rx         003C  8  C7 AB 02 12 01 00 2A FF 
   336)     14566.0  Rx         0130  5  F7 FF FF FF FF 
   337)     14665.7  Rx         003C  8  49 AC 02 12 01 00 2A FF 
   338)     14666.0  Rx         0130  5  F7 FF FF FF FF 
   339)     14721.9  Rx         0799  7  1E 01 16 04 0F 03 0A 
   340)     14765.7  Rx         003C  8  14 AD 02 12 01 00 2A FF 
   341)     14766.3  Rx         0130  5  F7 FF FF FF FF 
   342)     14865.7  Rx         003C  8  F3 AE 02 12 01 00 2A FF 
   343)     14866.1  Rx         0130  5  F7 FF FF FF FF 
   344)     14965.7  Rx         003C  8  F2 A0 02 12 01 00 2A FF 
   345)     14966.0  Rx         0130  5  F7 FF FF FF FF 
   346)     15007.2  Rx         07C1  8  0C 18 00 0C FF 00 01 00 
   347)     15065.7  Rx         003C  8  AF A1 02 12 01 00 2A FF 
   348)     15066.2  Rx         0130  5  F7 FF FF FF FF 
   349)     15165.7  Rx         003C  8  48 A2 02 12 01 00 2A FF 
   350)     15166.0  Rx         0130  5  F7 FF FF FF FF 
   351)     15221.9  Rx         0799  7  1A 01 16 04 12 03 0A 
   352)     15265.7  Rx         003C  8  15 A3 02 12 01 00 2A FF 
   353)     15266.0  Rx         0130  5  F7 FF FF FF FF 
   354)     15365.7  Rx         003C  8  9B A4 02 12 01 00 2A FF 
   355)     15366.2  Rx         0130  5  F7 FF FF FF FF 
   356)     15465.7  Rx         003C  8  C6 A5 02 12 01 00 2A FF 
   357)     15466.4  Rx         0130  5  F7 FF FF FF FF 
   358)     15565.7  Rx         003C  8  21 A6 02 12 01 00 2A FF 
   359)     15566.0  Rx         0130  5  F7 FF FF FF FF 
   360)     15665.7  Rx         003C  8  7C A7 02 12 01 00 2A FF 
   361)     15666.3  Rx         0130  5  F7 FF FF FF FF 
   362)     15721.2  Rx         0799  7  1E 01 16 04 0F 03 0A 
   363)     15765.7  Rx         003C  8  20 A8 02 12 01 00 2A FF 
   364)     15766.2  Rx         0130  5  F7 FF FF FF FF 
   365)     15865.7  Rx         003C  8  7D A9 02 12 01 00 2A FF 
   366)     15866.0  Rx         0130  5  F7 FF FF FF FF 
   367)     15965.7  Rx         003C  8  9A AA 02 12 01 00 2A FF 
   368)     15966.3  Rx         0130  5  F7 FF FF FF FF 
   369)     16007.1  Rx         07C1  8  0C 18 00 0C FF 00 01 00 
   370)     16065.7  Rx         003C  8  C7 AB 02 12 01 00 2A FF 
   371)     16066.0  Rx         0130  5  F7 FF FF FF FF 
   372)     16165.7  Rx         003C  8  49 AC 02 12 01 00 2A FF 
   373)     16166.0  Rx         0130  5  F7 FF FF FF FF 
   374)     16230.9  Rx         0799  7  1A 01 16 04 12 03 0A 
   375)     16265.7  Rx         003C  8  14 AD 02 12 01 00 2A FF 
   376)     16266.3  Rx         0130  5  F7 FF FF FF FF 
   377)     16365.7  Rx         003C  8  F3 AE 02 12 01 00 2A FF 
   378)     16366.2  Rx         0130  5  F7 FF FF FF FF 
   379)     16465.7  Rx         003C  8  F2 A0 02 12 01 00 2A FF 
   380)     16466.0  Rx         0130  5  F7 FF FF FF FF 
   381)     16565.7  Rx         003C  8  AF A1 02 12 01 00 2A FF 
   382)     16566.3  Rx         0130  5  F7 FF FF FF FF 
   383)     16665.7  Rx         003C  8  48 A2 02 12 01 00 2A FF 
   384)     16666.2  Rx         0130  5  F7 FF FF FF FF 
   385)     16734.3  Rx         0799  7  1E 01 16 04 0F 03 0A 
   386)     16765.7  Rx         003C  8  15 A3 02 12 01 00 2A FF 
   387)     16766.0  Rx         0130  5  F7 FF FF FF FF 
   388)     16865.7  Rx         003C  8  9B A4 02 12 01 00 2A FF 
   389)     16866.3  Rx         0130  5  F7 FF FF FF FF 
   390)     16965.7  Rx         003C  8  C6 A5 02 12 01 00 2A FF 
   391)     16966.0  Rx         0130  5  F7 FF FF FF FF 
   392)     17007.1  Rx         07C1  8  0C 18 00 0C FF 00 01 00 
   393)     17065.7  Rx         003C  8  21 A6 02 12 01 00 2A FF 
   394)     17066.8  Rx         0130  5  F7 FF FF FF FF 
   395)     17165.7  Rx         003C  8  7C A7 02 12 01 00 2A FF 
   396)     17166.3  Rx         0130  5  F7 FF FF FF FF 
   397)     17234.9  Rx         0799  7  19 01 16 04 13 03 0A 
   398)     17265.7  Rx         003C  8  20 A8 02 12 01 00 2A FF 
   399)     17266.2  Rx         0130  5  F7 FF FF FF FF 
   400)     17365.7  Rx         003C  8  7D A9 02 12 01 00 2A FF 
   401)     17366.0  Rx         0130  5  F7 FF FF FF FF 
   402)     17465.8  Rx         003C  8  9A AA 02 12 01 00 2A FF 
   403)     17466.6  Rx         0130  5  F7 FF FF FF FF 
   404)     17565.8  Rx         003C  8  C7 AB 02 12 01 00 2A FF 
   405)     17566.2  Rx         0130  5  F7 FF FF FF FF 
   406)     17617.4  Rx         07DF  8  02 01 00 00 00 00 00 00 
   407)     17625.7  Rx         07E8  8  06 41 00 BE 3F A8 13 00 
   408)     17634.2  Rx         07E9  8  06 41 00 98 18 80 01 AA 
   409)     17641.6  Rx         07EF  8  06 41 00 98 18 80 01 FF 
   410)     17665.8  Rx         003C  8  49 AC 02 12 01 00 2A FF 
   411)     17666.2  Rx         0130  5  F7 FF FF FF FF 
   412)     17742.0  Rx         0799  7  1E 01 16 04 0F 03 0A 
   413)     17765.7  Rx         003C  8  14 AD 02 12 01 00 2A FF 
   414)     17766.3  Rx         0130  5  F7 FF FF FF FF 
   415)     17865.9  Rx         003C  8  F3 AE 02 12 01 00 2A FF 
   416)     17866.2  Rx         0130  5  F7 FF FF FF FF 
   417)     17965.7  Rx         003C  8  F2 A0 02 12 01 00 2A FF 
   418)     17966.0  Rx         0130  5  F7 FF FF FF FF 
   419)     18007.1  Rx         07C1  8  0C 18 00 0C FF 00 01 00 
   420)     18065.7  Rx         003C  8  AF A1 02 12 01 00 2A FF 
   421)     18066.3  Rx         0130  5  F7 FF FF FF FF 
   422)     18165.7  Rx         003C  8  48 A2 02 12 01 00 2A FF 
   423)     18166.0  Rx         0130  5  F7 FF FF FF FF 
   424)     18241.3  Rx         0799  7  18 01 16 04 13 03 0A 
   425)     18265.7  Rx         003C  8  15 A3 02 12 01 00 2A FF 
   426)     18266.0  Rx         0130  5  F7 FF FF FF FF 
   427)     18365.6  Rx         003C  8  9B A4 02 12 01 00 2A FF 
   428)     18366.2  Rx         0130  5  F7 FF FF FF FF 
   429)     18465.7  Rx         003C  8  C6 A5 02 12 01 00 2A FF 
   430)     18466.0  Rx         0130  5  F7 FF FF FF FF 
   431)     18565.7  Rx         003C  8  21 A6 02 12 01 00 2A FF 
   432)     18566.0  Rx         0130  5  F7 FF FF FF FF 
   433)     18665.7  Rx         003C  8  7C A7 02 12 01 00 2A FF 
   434)     18666.3  Rx         0130  5  F7 FF FF FF FF 
   435)     18692.3  Rx         07DF  8  02 01 00 00 00 00 00 00 
   436)     18695.6  Rx         07E8  8  06 41 00 BE 3F A8 13 00 
   437)     18704.0  Rx         07E9  8  06 41 00 98 18 80 01 AA 
   438)     18716.5  Rx         07EF  8  06 41 00 98 18 80 01 FF 
   439)     18745.8  Rx         0799  7  1F 01 16 04 0E 03 0A 
   440)     18765.7  Rx         003C  8  20 A8 02 12 01 00 2A FF 
   441)     18766.0  Rx         0130  5  F7 FF FF FF FF 
   442)     18865.7  Rx         003C  8  7D A9 02 12 01 00 2A FF 
   443)     18866.0  Rx         0130  5  F7 FF FF FF FF 
   444)     18929.6  Rx         07DF  8  02 01 00 00 00 00 00 00 
   445)     18935.6  Rx         07E8  8  06 41 00 BE 3F A8 13 00 
   446)     18944.1  Rx         07E9  8  06 41 00 98 18 80 01 AA 
   447)     18951.7  Rx         07EF  8  06 41 00 98 18 80 01 FF 
   448)     18965.7  Rx         003C  8  9A AA 02 12 01 00 2A FF 
   449)     18966.2  Rx         0130  5  F7 FF FF FF FF 
   450)     19007.1  Rx         07C1  8  0C 18 00 0C FF 00 01 00 
   451)     19065.6  Rx         003C  8  C7 AB 02 12 01 00 2A FF 
   452)     19066.0  Rx         0130  5  F7 FF FF FF FF 
   453)     19152.6  Rx         07DF  8  02 01 20 00 00 00 00 00 
   454)     19155.7  Rx         07E8  8  06 41 20 A0 07 B0 11 00 
   455)     19165.6  Rx         003C  8  49 AC 02 12 01 00 2A FF 
   456)     19166.0  Rx         0130  5  F7 FF FF FF FF 
   457)     19174.1  Rx         07E9  8  06 41 20 80 00 00 01 AA 
   458)     19176.5  Rx         07EF  8  06 41 20 80 00 00 01 FF 
   459)     19246.3  Rx         0799  7  19 01 16 04 13 03 0A 
   460)     19265.7  Rx         003C  8  14 AD 02 12 01 00 2A FF 
   461)     19266.2  Rx         0130  5  F7 FF FF FF FF 
   462)     19365.6  Rx         003C  8  F3 AE 02 12 01 00 2A FF 
   463)     19366.0  Rx         0130  5  F7 FF FF FF FF 
   464)     19377.6  Rx         07DF  8  02 01 40 00 00 00 00 00 
   465)     19385.5  Rx         07E8  8  06 41 40 FE D0 84 11 00 
   466)     19394.2  Rx         07E9  8  06 41 40 C0 00 00 00 AA 
   467)     19401.5  Rx         07EF  8  06 41 40 C0 00 00 00 FF 
   468)     19465.7  Rx         003C  8  F2 A0 02 12 01 00 2A FF 
   469)     19466.0  Rx         0130  5  F7 FF FF FF FF 
   470)     19565.8  Rx         003C  8  AF A1 02 12 01 00 2A FF 
   471)     19566.6  Rx         0130  5  F7 FF FF FF FF 
   472)     19602.7  Rx         07DF  8  02 01 60 00 00 00 00 00 
   473)     19605.7  Rx         07E8  8  06 41 60 61 00 00 01 00 
   474)     19665.7  Rx         003C  8  48 A2 02 12 01 00 2A FF 
   475)     19666.0  Rx         0130  5  F7 FF FF FF FF 
   476)     19746.8  Rx         0799  7  1E 01 16 04 0F 03 0A 
   477)     19765.7  Rx         003C  8  15 A3 02 12 01 00 2A FF 
   478)     19766.1  Rx         0130  5  F7 FF FF FF FF 
   479)     19806.6  Rx         07DF  8  02 01 80 00 00 00 00 00 
   480)     19815.6  Rx         07E8  8  06 41 80 00 04 00 0D 00 
   481)     19865.6  Rx         003C  8  9B A4 02 12 01 00 2A FF 
   482)     19866.2  Rx         0130  5  F7 FF FF FF FF 
   483)     19965.7  Rx         003C  8  C6 A5 02 12 01 00 2A FF 
   484)     19966.0  Rx         0130  5  F7 FF FF FF FF 
   485)     20007.1  Rx         07C1  8  0C 18 00 0C FF 00 01 00 
   486)     20016.6  Rx         07DF  8  02 01 A0 00 00 00 00 00 
   487)     20025.6  Rx         07E8  8  06 41 A0 04 00 00 00 00 
   488)     20065.6  Rx         003C  8  21 A6 02 12 01 00 2A FF 
   489)     20065.9  Rx         0130  5  F7 FF FF FF FF 
   490)     20165.7  Rx         003C  8  7C A7 02 12 01 00 2A FF 
   491)     20166.2  Rx         0130  5  F7 FF FF FF FF 
   492)     20223.6  Rx         07DF  8  02 01 51 00 00 00 00 00 
   493)     20235.6  Rx         07E8  8  03 41 51 01 00 00 00 00 
   494)     20247.7  Rx         0799  7  19 01 16 04 13 03 0A 
   495)     20265.8  Rx         003C  8  20 A8 02 12 01 00 2A FF 
   496)     20266.0  Rx         0130  5  F7 FF FF FF FF 
   497)     20293.9  Rx         07DF  8  02 01 01 00 00 00 00 00 
   498)     20305.7  Rx         07E8  8  06 41 01 00 07 E5 00 00 
   499)     20314.1  Rx         07E9  8  06 41 01 00 04 00 00 AA 
   500)     20316.6  Rx         07EF  8  06 41 01 00 04 00 00 FF 
   501)     20365.6  Rx         003C  8  7D A9 02 12 01 00 2A FF 
   502)     20365.9  Rx         0130  5  F7 FF FF FF FF 
   503)     20465.7  Rx         003C  8  9A AA 02 12 01 00 2A FF 
   504)     20466.3  Rx         0130  5  F7 FF FF FF FF 
   505)     20520.6  Rx         07DF  8  02 09 02 D9 78 09 01 24 
   506)     20525.6  Rx         07E8  8  10 14 49 02 01 35 55 58 
   507)     20526.2  Rx         07E0  8  30 00 00 00 00 00 00 00 
   508)     20529.3  Rx         07E8  8  21 54 53 33 43 35 58 4B 
   509)     20530.2  Rx         07E8  8  22 30 5A 30 32 36 35 36 
   510)     20565.6  Rx         003C  8  C7 AB 02 12 01 00 2A FF 
   511)     20566.0  Rx         0130  5  F7 FF FF FF FF 
   512)     20665.6  Rx         003C  8  49 AC 02 12 01 00 2A FF 
   513)     20666.0  Rx         0130  5  F7 FF FF FF FF 
   514)     20750.8  Rx         0799  7  1E 01 16 04 0F 03 0A 
   515)     20765.7  Rx         003C  8  14 AD 02 12 01 00 2A FF 
   516)     20766.3  Rx         0130  5  F7 FF FF FF FF 
   517)     20865.6  Rx         003C  8  F3 AE 02 12 01 00 2A FF 
   518)     20866.0  Rx         0130  5  F7 FF FF FF FF 
   519)     20965.6  Rx         003C  8  F2 A0 02 12 01 00 2A FF 
   520)     20966.0  Rx         0130  5  F7 FF FF FF FF 
   521)     21007.1  Rx         07C1  8  0C 18 00 0C FF 00 01 00 
   522)     21065.8  Rx         003C  8  AF A1 02 12 01 00 2A FF 
   523)     21066.2  Rx         0130  5  F7 FF FF FF FF 
   524)     21165.6  Rx         003C  8  48 A2 02 12 01 00 2A FF 
   525)     21165.9  Rx         0130  5  F7 FF FF FF FF 
   526)     21229.4  Rx         07DF  8  02 01 0C 00 00 00 00 00 
   527)     21235.6  Rx         07E8  8  04 41 0C 0A 66 00 00 00 
   528)     21244.1  Rx         07E9  8  04 41 0C 0A 6C AA AA AA 
   529)     21251.5  Rx         07EF  8  04 41 0C 0A 6C FF FF FF 
   530)     21256.8  Rx         0799  7  19 01 16 04 13 03 0A 
   531)     21265.6  Rx         003C  8  15 A3 02 12 01 00 2A FF 
   532)     21265.9  Rx         0130  5  F7 FF FF FF FF 
   533)     21365.7  Rx         003C  8  9B A4 02 12 01 00 2A FF 
   534)     21366.3  Rx         0130  5  F7 FF FF FF FF 
   535)     21465.6  Rx         003C  8  C6 A5 02 12 01 00 2A FF 
   536)     21465.9  Rx         0130  5  F7 FF FF FF FF 
   537)     21565.6  Rx         003C  8  21 A6 02 12 01 00 2A FF 
   538)     21565.9  Rx         0130  5  F7 FF FF FF FF 
   539)     21642.7  Rx         07DF  8  02 01 11 00 00 00 00 00 
   540)     21655.7  Rx         07E8  8  03 41 11 25 00 00 00 00 
   541)     21664.0  Rx         07E9  8  03 41 11 24 AA AA AA AA 
   542)     21665.6  Rx         003C  8  7C A7 02 12 01 00 2A FF 
   543)     21666.2  Rx         0130  5  F7 FF FF FF FF 
   544)     21666.5  Rx         07EF  8  03 41 11 24 FF FF FF FF 
   545)     21756.5  Rx         0799  7  1F 01 16 04 0E 03 0A 
   546)     21765.6  Rx         003C  8  20 A8 02 12 01 00 2A FF 
   547)     21765.9  Rx         0130  5  F7 FF FF FF FF 
   548)     21865.6  Rx         003C  8  7D A9 02 12 01 00 2A FF 
   549)     21866.1  Rx         0130  5  F7 FF FF FF FF 
   550)     21965.8  Rx         003C  8  9A AA 02 12 01 00 2A FF 
   551)     21966.2  Rx         0130  5  F7 FF FF FF FF 
   552)     22007.1  Rx         07C1  8  0C 18 00 0C FF 00 01 00 
   553)     22029.3  Rx         07DF  8  02 01 05 00 00 00 00 00 
   554)     22036.9  Rx         07E8  8  03 41 05 5B 00 00 00 00 
   555)     22044.0  Rx         07E9  8  03 41 05 5B AA AA AA AA 
   556)     22051.5  Rx         07EF  8  03 41 05 5B FF FF FF FF 
   557)     22065.6  Rx         003C  8  C7 AB 02 12 01 00 2A FF 
   558)     22066.2  Rx         0130  5  F7 FF FF FF FF 
   559)     22165.7  Rx         003C  8  49 AC 02 12 01 00 2A FF 
   560)     22165.9  Rx         0130  5  F7 FF FF FF FF 
   561)     22262.3  Rx         0799  7  18 01 16 04 13 03 0A 
   562)     22265.6  Rx         003C  8  14 AD 02 12 01 00 2A FF 
   563)     22266.2  Rx         0130  5  F7 FF FF FF FF 
   564)     22365.6  Rx         003C  8  F3 AE 02 12 01 00 2A FF 
   565)     22365.9  Rx         0130  5  F7 FF FF FF FF 
   566)     22429.4  Rx         07DF  8  02 01 46 00 00 00 00 00 
   567)     22435.6  Rx         07E8  8  03 41 46 2E 00 00 00 00 
   568)     22465.7  Rx         003C  8  F2 A0 02 12 01 00 2A FF 
   569)     22466.0  Rx         0130  5  F7 FF FF FF FF 
   570)     22565.6  Rx         003C  8  AF A1 02 12 01 00 2A FF 
   571)     22566.2  Rx         0130  5  F7 FF FF FF FF 
   572)     22665.7  Rx         003C  8  48 A2 02 12 01 00 2A FF 
   573)     22666.0  Rx         0130  5  F7 FF FF FF FF 
   574)     22762.1  Rx         0799  7  1E 01 16 04 0F 03 0A 
   575)     22765.6  Rx         003C  8  15 A3 02 12 01 00 2A FF 
   576)     22766.0  Rx         0130  5  F7 FF FF FF FF 
   577)     22829.4  Rx         07DF  8  02 01 0D 00 00 00 00 00 
   578)     22835.5  Rx         07E8  8  03 41 0D 00 00 00 00 00 
   579)     22844.0  Rx         07E9  8  03 41 0D 00 AA AA AA AA 
   580)     22851.5  Rx         07EF  8  03 41 0D 00 FF FF FF FF 
   581)     22865.6  Rx         003C  8  9B A4 02 12 01 00 2A FF 
   582)     22866.2  Rx         0130  5  F7 FF FF FF FF 
   583)     22965.6  Rx         003C  8  C6 A5 02 12 01 00 2A FF 
   584)     22965.9  Rx         0130  5  F7 FF FF FF FF 
   585)     23007.1  Rx         07C1  8  0C 18 00 0C FF 00 01 00 
   586)     23065.6  Rx         003C  8  21 A6 02 12 01 00 2A FF 
   587)     23065.9  Rx         0130  5  F7 FF FF FF FF 
   588)     23165.6  Rx         003C  8  7C A7 02 12 01 00 2A FF 
   589)     23166.1  Rx         0130  5  F7 FF FF FF FF 
   590)     23226.9  Rx         07DF  8  01 03 00 00 00 00 00 00 
   591)     23235.5  Rx         07E8  8  02 43 00 00 00 00 00 00 
   592)     23244.0  Rx         07E9  8  02 43 00 AA AA AA AA AA 
   593)     23251.5  Rx         07EF  8  02 43 00 FF FF FF FF FF 
   594)     23262.1  Rx         0799  7  19 01 16 04 13 03 0A 
   595)     23265.6  Rx         003C  8  20 A8 02 12 01 00 2A FF 
   596)     23265.9  Rx         0130  5  F7 FF FF FF FF 
   597)     23302.3  Rx         07DF  8  01 07 00 00 00 00 00 00 
   598)     23305.6  Rx         07E8  8  02 47 00 00 00 00 00 00 
   599)     23323.9  Rx         07E9  8  02 47 00 AA AA AA AA AA 
   600)     23331.5  Rx         07EF  8  02 47 00 FF FF FF FF FF 
   601)     23365.6  Rx         003C  8  7D A9 02 12 01 00 2A FF 
   602)     23365.9  Rx         0130  5  F7 FF FF FF FF 
   603)     23382.3  Rx         07DF  8  01 0A 00 00 00 00 00 00 
   604)     23385.6  Rx         07E8  8  02 4A 00 00 00 00 00 00 
   605)     23403.9  Rx         07E9  8  02 4A 00 AA AA AA AA AA 
   606)     23406.4  Rx         07EF  8  02 4A 00 FF FF FF FF FF 
   607)     23457.3  Rx         07DF  8  03 02 02 00 00 00 00 00 
   608)     23465.5  Rx         003C  8  9A AA 02 12 01 00 2A FF 
   609)     23466.2  Rx         07E8  8  05 42 02 00 00 00 00 00 
   610)     23466.4  Rx         0130  5  F7 FF FF FF FF 
   611)     23474.1  Rx         07E9  8  05 42 02 00 00 00 AA AA 
   612)     23481.5  Rx         07EF  8  05 42 02 00 00 00 FF FF 
   613)     23533.8  Rx         07DF  8  02 01 01 00 00 00 00 00 
   614)     23545.6  Rx         07E8  8  06 41 01 00 07 E5 00 00 
   615)     23554.0  Rx         07E9  8  06 41 01 00 04 00 00 AA 
   616)     23556.4  Rx         07EF  8  06 41 01 00 04 00 00 FF 
   617)     23565.5  Rx         003C  8  C7 AB 02 12 01 00 2A FF 
   618)     23565.8  Rx         0130  5  F7 FF FF FF FF 
   619)     23629.2  Rx         07DF  8  02 01 33 00 00 00 00 00 
   620)     23635.5  Rx         07E8  8  03 41 33 50 00 00 00 00 
   621)     23665.5  Rx         003C  8  49 AC 02 12 01 00 2A FF 
   622)     23665.8  Rx         0130  5  F7 FF FF FF FF 
   623)     23762.2  Rx         0799  7  1E 01 16 04 0F 03 0A 
   624)     23765.5  Rx         003C  8  14 AD 02 12 01 00 2A FF 
   625)     23766.0  Rx         0130  5  F7 FF FF FF FF 
   626)     23865.5  Rx         003C  8  F3 AE 02 12 01 00 2A FF 
   627)     23865.8  Rx         0130  5  F7 FF FF FF FF 
   628)     23965.6  Rx         003C  8  F2 A0 02 12 01 00 2A FF 
   629)     23965.8  Rx         0130  5  F7 FF FF FF FF 
   630)     24007.0  Rx         07C1  8  0C 18 00 0C FF 00 01 00 
   631)     24065.6  Rx         003C  8  AF A1 02 12 01 00 2A FF 
   632)     24066.1  Rx         0130  5  F7 FF FF FF FF 
   633)     24165.6  Rx         003C  8  48 A2 02 12 01 00 2A FF 
   634)     24165.8  Rx         0130  5  F7 FF FF FF FF 
   635)     24265.2  Rx         0799  7  19 01 16 04 13 03 0A 
   636)     24265.5  Rx         003C  8  15 A3 02 12 01 00 2A FF 
   637)     24265.9  Rx         0130  5  F7 FF FF FF FF 
   638)     24365.6  Rx         003C  8  9B A4 02 12 01 00 2A FF 
   639)     24366.1  Rx         0130  5  F7 FF FF FF FF 
   640)     24429.2  Rx         07DF  8  02 01 A6 00 00 00 00 00 
   641)     24435.5  Rx         07E8  8  06 41 A6 00 14 53 8E 00 
   642)     24465.6  Rx         003C  8  C6 A5 02 12 01 00 2A FF 
   643)     24465.8  Rx         0130  5  F7 FF FF FF FF 
   644)     24565.6  Rx         003C  8  21 A6 02 12 01 00 2A FF 
   645)     24565.9  Rx         0130  5  F7 FF FF FF FF 
   646)     24665.6  Rx         003C  8  7C A7 02 12 01 00 2A FF 
   647)     24666.1  Rx         0130  5  F7 FF FF FF FF 
   648)     24765.5  Rx         003C  8  20 A8 02 12 01 00 2A FF 
   649)     24765.8  Rx         0130  5  F7 FF FF FF FF 
   650)     24766.2  Rx         0799  7  1E 01 16 04 0F 03 0A 
   651)     24829.2  Rx         07DF  8  02 01 2F 00 00 00 00 00 
   652)     24836.6  Rx         07E8  8  03 41 2F 26 00 00 00 00 
   653)     24865.5  Rx         003C  8  7D A9 02 12 01 00 2A FF 
   654)     24866.0  Rx         0130  5  F7 FF FF FF FF 
   655)     24965.6  Rx         003C  8  9A AA 02 12 01 00 2A FF 
   656)     24966.1  Rx         0130  5  F7 FF FF FF FF 
   657)     25007.0  Rx         07C1  8  0C 18 00 0C FF 00 01 00 
   658)     25065.7  Rx         003C  8  C7 AB 02 12 01 00 2A FF 
   659)     25065.9  Rx         0130  5  F7 FF FF FF FF 
   660)     25165.5  Rx         003C  8  49 AC 02 12 01 00 2A FF 
   661)     25165.8  Rx         0130  5  F7 FF FF FF FF 
   662)     25229.2  Rx         07DF  8  02 01 5C 00 00 00 00 00 
   663)     25235.6  Rx         07E8  8  03 41 5C 58 00 00 00 00 
   664)     25265.6  Rx         003C  8  14 AD 02 12 01 00 2A FF 
   665)     25266.0  Rx         0130  5  F7 FF FF FF FF 
   666)     25270.6  Rx         0799  7  19 01 17 04 12 03 0A 
   667)     25365.5  Rx         003C  8  F3 AE 02 12 01 00 2A FF 
   668)     25365.8  Rx         0130  5  F7 FF FF FF FF 
   669)     25465.6  Rx         003C  8  F2 A0 02 12 01 00 2A FF 
   670)     25466.0  Rx         0130  5  F7 FF FF FF FF 
   671)     25565.5  Rx         003C  8  AF A1 02 12 01 00 2A FF 
   672)     25566.1  Rx         0130  5  F7 FF FF FF FF 
   673)     25629.2  Rx         07DF  8  02 01 9D 00 00 00 00 00 
   674)     25635.5  Rx         07E8  8  06 41 9D 00 0D 00 0D 00 
   675)     25665.6  Rx         003C  8  48 A2 02 12 01 00 2A FF 
   676)     25665.9  Rx         0130  5  F7 FF FF FF FF 
   677)     25765.6  Rx         003C  8  15 A3 02 12 01 00 2A FF 
   678)     25765.9  Rx         0130  5  F7 FF FF FF FF 
   679)     25770.2  Rx         0799  7  1E 01 16 04 0F 03 0A 
   680)     25865.6  Rx         003C  8  9B A4 02 12 01 00 2A FF 
   681)     25866.1  Rx         0130  5  F7 FF FF FF FF 
   682)     25965.5  Rx         003C  8  C6 A5 02 12 01 00 2A FF 
   683)     25965.8  Rx         0130  5  F7 FF FF FF FF 
   684)     26007.1  Rx         07C1  8  0C 18 00 0C FF 00 01 00 
   685)     26065.8  Rx         003C  8  21 A6 02 12 01 00 2A FF 
   686)     26065.9  Rx         0130  5  F7 FF FF FF FF 
   687)     26165.5  Rx         003C  8  7C A7 02 12 01 00 2A FF 
   688)     26166.1  Rx         0130  5  F7 FF FF FF FF 
   689)     26265.5  Rx         003C  8  20 A8 02 12 01 00 2A FF 
   690)     26265.8  Rx         0130  5  F7 FF FF FF FF 
   691)     26271.7  Rx         0799  7  19 01 16 04 13 03 0A 
   692)     26365.5  Rx         003C  8  7D A9 02 12 01 00 2A FF 
   693)     26365.8  Rx         0130  5  F7 FF FF FF FF 
   694)     26465.6  Rx         003C  8  9A AA 02 12 01 00 2A FF 
   695)     26466.1  Rx         0130  5  F7 FF FF FF FF 
   696)     26565.6  Rx         003C  8  C7 AB 02 12 01 00 2A FF 
   697)     26565.8  Rx         0130  5  F7 FF FF FF FF 
   698)     26665.7  Rx         003C  8  49 AC 02 12 01 00 2A FF 
   699)     26665.9  Rx         0130  5  F7 FF FF FF FF 
   700)     26765.5  Rx         003C  8  14 AD 02 12 01 00 2A FF 
   701)     26766.1  Rx         0130  5  F7 FF FF FF FF 
   702)     26775.1  Rx         0799  7  1E 01 16 04 0F 03 0A 
   703)     26830.4  Rx         07DF  8  02 01 0C 00 00 00 00 00 
   704)     26835.5  Rx         07E8  8  04 41 0C 0A 66 00 00 00 
   705)     26843.4  Rx         07E9  8  04 41 0C 0A 60 AA AA AA 
   706)     26851.5  Rx         07EF  8  04 41 0C 0A 60 FF FF FF 
   707)     26865.6  Rx         003C  8  F3 AE 02 12 01 00 2A FF 
   708)     26865.8  Rx         0130  5  F7 FF FF FF FF 
   709)     26965.6  Rx         003C  8  F2 A0 02 12 01 00 2A FF 
   710)     26965.8  Rx         0130  5  F7 FF FF FF FF 
   711)     27007.0  Rx         07C1  8  0C 18 00 0C FF 00 01 00 
   712)     27065.8  Rx         003C  8  AF A1 02 12 01 00 2A FF 
   713)     27066.4  Rx         0130  5  F7 FF FF FF FF 
   714)     27165.6  Rx         003C  8  48 A2 02 12 01 00 2A FF 
   715)     27165.8  Rx         0130  5  F7 FF FF FF FF 
   716)     27229.8  Rx         07DF  8  02 01 11 00 00 00 00 00 
   717)     27235.5  Rx         07E8  8  03 41 11 25 00 00 00 00 
   718)     27243.3  Rx         07E9  8  03 41 11 24 AA AA AA AA 
   719)     27251.4  Rx         07EF  8  03 41 11 24 FF FF FF FF 
   720)     27265.5  Rx         003C  8  15 A3 02 12 01 00 2A FF 
   721)     27265.8  Rx         0130  5  F7 FF FF FF FF 
   722)     27282.0  Rx         0799  7  18 01 17 04 13 03 0A 
   723)     27365.6  Rx         003C  8  9B A4 02 12 01 00 2A FF 
   724)     27366.0  Rx         0130  5  F7 FF FF FF FF 
   725)     27465.7  Rx         003C  8  C6 A5 02 12 01 00 2A FF 
   726)     27466.0  Rx         0130  5  F7 FF FF FF FF 
   727)     27565.5  Rx         003C  8  21 A6 02 12 01 00 2A FF 
   728)     27565.8  Rx         0130  5  F7 FF FF FF FF 
   729)     27629.7  Rx         07DF  8  02 01 05 00 00 00 00 00 
   730)     27635.5  Rx         07E8  8  03 41 05 5B 00 00 00 00 
   731)     27643.9  Rx         07E9  8  03 41 05 5B AA AA AA AA 
   732)     27651.4  Rx         07EF  8  03 41 05 5B FF FF FF FF 
   733)     27665.5  Rx         003C  8  7C A7 02 12 01 00 2A FF 
   734)     27666.1  Rx         0130  5  F7 FF FF FF FF 
   735)     27765.5  Rx         003C  8  20 A8 02 12 01 00 2A FF 
   736)     27765.8  Rx         0130  5  F7 FF FF FF FF 
   737)     27782.7  Rx         0799  7  1E 01 16 04 0E 03 0A 
   738)     27865.6  Rx         003C  8  7D A9 02 12 01 00 2A FF 
   739)     27865.8  Rx         0130  5  F7 FF FF FF FF 
   740)     27965.6  Rx         003C  8  9A AA 02 12 01 00 2A FF 
   741)     27966.0  Rx         0130  5  F7 FF FF FF FF 
   742)     28007.0  Rx         07C1  8  0C 18 00 0C FF 00 01 00 
   743)     28029.7  Rx         07DF  8  02 01 46 00 00 00 00 00 
   744)     28035.5  Rx         07E8  8  03 41 46 2E 00 00 00 00 
   745)     28065.4  Rx         003C  8  C7 AB 02 12 01 00 2A FF 
   746)     28065.8  Rx         0130  5  F7 FF FF FF FF 
   747)     28165.5  Rx         003C  8  49 AC 02 12 01 00 2A FF 
   748)     28165.8  Rx         0130  5  F7 FF FF FF FF 
   749)     28265.5  Rx         003C  8  14 AD 02 12 01 00 2A FF 
   750)     28266.1  Rx         0130  5  F7 FF FF FF FF 
   751)     28291.1  Rx         0799  7  19 01 17 04 13 03 0A 
   752)     28365.5  Rx         003C  8  F3 AE 02 12 01 00 2A FF 
   753)     28365.8  Rx         0130  5  F7 FF FF FF FF 
   754)     28429.8  Rx         07DF  8  02 01 0D 00 00 00 00 00 
   755)     28435.6  Rx         07E8  8  03 41 0D 00 00 00 00 00 
   756)     28443.3  Rx         07E9  8  03 41 0D 00 AA AA AA AA 
   757)     28451.4  Rx         07EF  8  03 41 0D 00 FF FF FF FF 
   758)     28465.6  Rx         003C  8  F2 A0 02 12 01 00 2A FF 
   759)     28465.8  Rx         0130  5  F7 FF FF FF FF 
   760)     28565.6  Rx         003C  8  AF A1 02 12 01 00 2A FF 
   761)     28566.1  Rx         0130  5  F7 FF FF FF FF 
   762)     28665.6  Rx         003C  8  48 A2 02 12 01 00 2A FF 
   763)     28665.8  Rx         0130  5  F7 FF FF FF FF 
   764)     28765.5  Rx         003C  8  15 A3 02 12 01 00 2A FF 
   765)     28765.9  Rx         0130  5  F7 FF FF FF FF 
   766)     28791.1  Rx         0799  7  1E 01 16 04 0F 03 0A 
   767)     28827.7  Rx         07DF  8  02 01 01 00 00 00 00 00 
   768)     28835.5  Rx         07E8  8  06 41 01 00 07 E5 00 00 
   769)     28843.3  Rx         07E9  8  06 41 01 00 04 00 00 AA 
   770)     28851.4  Rx         07EF  8  06 41 01 00 04 00 00 FF 
   771)     28865.5  Rx         003C  8  9B A4 02 12 01 00 2A FF 
   772)     28866.0  Rx         0130  5  F7 FF FF FF FF 
   773)     28965.6  Rx         003C  8  C6 A5 02 12 01 00 2A FF 
   774)     28965.8  Rx         0130  5  F7 FF FF FF FF 
   775)     29007.0  Rx         07C1  8  0C 18 00 0C FF 00 01 00 
   776)     29065.4  Rx         003C  8  21 A6 02 12 01 00 2A FF 
   777)     29065.8  Rx         0130  5  F7 FF FF FF FF 
   778)     29165.5  Rx         003C  8  7C A7 02 12 01 00 2A FF 
   779)     29166.0  Rx         0130  5  F7 FF FF FF FF 
   780)     29229.7  Rx         07DF  8  02 01 33 00 00 00 00 00 
   781)     29235.5  Rx         07E8  8  03 41 33 50 00 00 00 00 
   782)     29265.5  Rx         003C  8  20 A8 02 12 01 00 2A FF 
   783)     29265.8  Rx         0130  5  F7 FF FF FF FF 
   784)     29291.6  Rx         0799  7  18 01 16 04 13 03 0A 
   785)     29365.5  Rx         003C  8  7D A9 02 12 01 00 2A FF 
   786)     29365.8  Rx         0130  5  F7 FF FF FF FF 
   787)     29465.6  Rx         003C  8  9A AA 02 12 01 00 2A FF 
   788)     29466.1  Rx         0130  5  F7 FF FF FF FF 
   789)     29565.6  Rx         003C  8  C7 AB 02 12 01 00 2A FF 
   790)     29565.8  Rx         0130  5  F7 FF FF FF FF 
   791)     29665.5  Rx         003C  8  49 AC 02 12 01 00 2A FF 
   792)     29665.8  Rx         0130  5  F7 FF FF FF FF 
   793)     29765.6  Rx         003C  8  14 AD 02 12 01 00 2A FF 
   794)     29766.0  Rx         0130  5  F7 FF FF FF FF 
   795)     29791.1  Rx         0799  7  1F 01 16 04 0E 03 0A 
   796)     29865.8  Rx         003C  8  F3 AE 02 12 01 00 2A FF 
   797)     29865.9  Rx         0130  5  F7 FF FF FF FF 
   798)     29965.5  Rx         003C  8  F2 A0 02 12 01 00 2A FF 
   799)     29965.8  Rx         0130  5  F7 FF FF FF FF 
   800)     30007.0  Rx         07C1  8  0C 18 00 0C FF 00 01 00 
   801)     30029.8  Rx         07DF  8  02 01 A6 00 00 00 00 00 
   802)     30036.5  Rx         07E8  8  06 41 A6 00 14 53 8E 00 
   803)     30065.6  Rx         003C  8  AF A1 02 12 01 00 2A FF 
   804)     30066.1  Rx         0130  5  F7 FF FF FF FF 
   805)     30165.6  Rx         003C  8  48 A2 02 12 01 00 2A FF 
   806)     30165.8  Rx         0130  5  F7 FF FF FF FF 
   807)     30265.5  Rx         003C  8  15 A3 02 12 01 00 2A FF 
   808)     30265.8  Rx         0130  5  F7 FF FF FF FF 
   809)     30297.1  Rx         0799  7  19 01 16 04 13 03 0A 
   810)     30365.4  Rx         003C  8  9B A4 02 12 01 00 2A FF 
   811)     30366.0  Rx         0130  5  F7 FF FF FF FF 
   812)     30429.7  Rx         07DF  8  02 01 2F 00 00 00 00 00 
   813)     30435.9  Rx         07E8  8  03 41 2F 26 00 00 00 00 
   814)     30465.6  Rx         003C  8  C6 A5 02 12 01 00 2A FF 
   815)     30465.8  Rx         0130  5  F7 FF FF FF FF 
   816)     30565.5  Rx         003C  8  21 A6 02 12 01 00 2A FF 
   817)     30565.8  Rx         0130  5  F7 FF FF FF FF 
   818)     30665.6  Rx         003C  8  7C A7 02 12 01 00 2A FF 
   819)     30666.1  Rx         0130  5  F7 FF FF FF FF 
   820)     30765.5  Rx         003C  8  20 A8 02 12 01 00 2A FF 
   821)     30765.8  Rx         0130  5  F7 FF FF FF FF 
   822)     30810.6  Rx         0799  7  1E 01 16 04 0E 03 0A 
   823)     30830.2  Rx         07DF  8  02 01 5C 00 00 00 00 00 
   824)     30835.6  Rx         07E8  8  03 41 5C 58 00 00 00 00 
   825)     30865.6  Rx         003C  8  7D A9 02 12 01 00 2A FF 
   826)     30865.8  Rx         0130  5  F7 FF FF FF FF 
   827)     30965.7  Rx         003C  8  9A AA 02 12 01 00 2A FF 
   828)     30966.0  Rx         0130  5  F7 FF FF FF FF 
   829)     31007.0  Rx         07C1  8  0C 18 00 0C FF 00 01 00 
   830)     31065.5  Rx         003C  8  C7 AB 02 12 01 00 2A FF 
   831)     31065.8  Rx         0130  5  F7 FF FF FF FF 
   832)     31165.5  Rx         003C  8  49 AC 02 12 01 00 2A FF 
   833)     31165.8  Rx         0130  5  F7 FF FF FF FF 
   834)     31229.8  Rx         07DF  8  02 01 9D 00 00 00 00 00 
   835)     31235.5  Rx         07E8  8  06 41 9D 00 0D 00 0D 00 
   836)     31265.6  Rx         003C  8  14 AD 02 12 01 00 2A FF 
   837)     31266.1  Rx         0130  5  F7 FF FF FF FF 
   838)     31315.3  Rx         0799  7  18 01 16 04 14 03 0A 
   839)     31365.4  Rx         003C  8  F3 AE 02 12 01 00 2A FF 
   840)     31365.8  Rx         0130  5  F7 FF FF FF FF 
   841)     31465.7  Rx         003C  8  F2 A0 02 12 01 00 2A FF 
   842)     31465.9  Rx         0130  5  F7 FF FF FF FF 
   843)     31565.5  Rx         003C  8  AF A1 02 12 01 00 2A FF 
   844)     31566.0  Rx         0130  5  F7 FF FF FF FF 
   845)     31665.5  Rx         003C  8  48 A2 02 12 01 00 2A FF 
   846)     31665.8  Rx         0130  5  F7 FF FF FF FF 
   847)     31765.5  Rx         003C  8  15 A3 02 12 01 00 2A FF 
   848)     31765.8  Rx         0130  5  F7 FF FF FF FF 
   849)     31816.3  Rx         0799  7  1F 01 16 04 0F 03 0A 
   850)     31865.6  Rx         003C  8  9B A4 02 12 01 00 2A FF 
   851)     31866.0  Rx         0130  5  F7 FF FF FF FF 
   852)     31965.4  Rx         003C  8  C6 A5 02 12 01 00 2A FF 
   853)     31965.8  Rx         0130  5  F7 FF FF FF FF 
   854)     32007.0  Rx         07C1  8  0C 18 00 0C FF 00 01 00 
   855)     32065.7  Rx         003C  8  21 A6 02 12 01 00 2A FF 
   856)     32066.2  Rx         0130  5  F7 FF FF FF FF 
   857)     32165.6  Rx         003C  8  7C A7 02 12 01 00 2A FF 
   858)     32166.0  Rx         0130  5  F7 FF FF FF FF 
   859)     32265.6  Rx         003C  8  20 A8 02 12 01 00 2A FF 
   860)     32265.8  Rx         0130  5  F7 FF FF FF FF 
   861)     32324.7  Rx         0799  7  19 01 16 04 13 03 0A 
   862)     32365.4  Rx         003C  8  7D A9 02 12 01 00 2A FF 
   863)     32365.7  Rx         0130  5  F7 FF FF FF FF 
   864)     32429.8  Rx         07DF  8  02 01 0C 00 00 00 00 00 
   865)     32435.5  Rx         07E8  8  04 41 0C 0A 60 00 00 00 
   866)     32443.2  Rx         07E9  8  04 41 0C 0A 58 AA AA AA 
   867)     32451.5  Rx         07EF  8  04 41 0C 0A 58 FF FF FF 
   868)     32465.6  Rx         003C  8  9A AA 02 12 01 00 2A FF 
   869)     32466.1  Rx         0130  5  F7 FF FF FF FF 
   870)     32565.6  Rx         003C  8  C7 AB 02 12 01 00 2A FF 
   871)     32565.9  Rx         0130  5  F7 FF FF FF FF 
   872)     32665.6  Rx         003C  8  49 AC 02 12 01 00 2A FF 
   873)     32665.9  Rx         0130  5  F7 FF FF FF FF 
   874)     32765.7  Rx         003C  8  14 AD 02 12 01 00 2A FF 
   875)     32766.1  Rx         0130  5  F7 FF FF FF FF 
   876)     32826.7  Rx         0799  7  1D 01 16 04 0F 03 0A 
   877)     32829.8  Rx         07DF  8  02 01 11 00 00 00 00 00 
   878)     32835.5  Rx         07E8  8  03 41 11 24 00 00 00 00 
   879)     32843.2  Rx         07E9  8  03 41 11 23 AA AA AA AA 
   880)     32851.5  Rx         07EF  8  03 41 11 23 FF FF FF FF 
   881)     32865.6  Rx         003C  8  F3 AE 02 12 01 00 2A FF 
   882)     32865.9  Rx         0130  5  F7 FF FF FF FF 
   883)     32965.6  Rx         003C  8  F2 A0 02 12 01 00 2A FF 
   884)     32965.9  Rx         0130  5  F7 FF FF FF FF 
   885)     33008.1  Rx         07C1  8  0C 18 00 0C FF 00 01 00 
   886)     33065.6  Rx         003C  8  AF A1 02 12 01 00 2A FF 
   887)     33066.2  Rx         0130  5  F7 FF FF FF FF 
   888)     33165.5  Rx         003C  8  48 A2 02 12 01 00 2A FF 
   889)     33165.8  Rx         0130  5  F7 FF FF FF FF 
   890)     33229.8  Rx         07DF  8  02 01 05 00 00 00 00 00 
   891)     33235.5  Rx         07E8  8  03 41 05 5B 00 00 00 00 
   892)     33243.1  Rx         07E9  8  03 41 05 5B AA AA AA AA 
   893)     33251.5  Rx         07EF  8  03 41 05 5B FF FF FF FF 
   894)     33265.5  Rx         003C  8  15 A3 02 12 01 00 2A FF 
   895)     33265.8  Rx         0130  5  F7 FF FF FF FF 
   896)     33342.2  Rx         0799  7  1A 01 16 04 12 03 0A 
   897)     33365.5  Rx         003C  8  9B A4 02 12 01 00 2A FF 
   898)     33366.0  Rx         0130  5  F7 FF FF FF FF 
   899)     33465.6  Rx         003C  8  C6 A5 02 12 01 00 2A FF 
   900)     33465.9  Rx         0130  5  F7 FF FF FF FF 
   901)     33565.5  Rx         003C  8  21 A6 02 12 01 00 2A FF 
   902)     33565.8  Rx         0130  5  F7 FF FF FF FF 
   903)     33629.8  Rx         07DF  8  02 01 46 00 00 00 00 00 
   904)     33635.5  Rx         07E8  8  03 41 46 2E 00 00 00 00 
   905)     33665.7  Rx         003C  8  7C A7 02 12 01 00 2A FF 
   906)     33666.0  Rx         0130  5  F7 FF FF FF FF 
   907)     33765.5  Rx         003C  8  20 A8 02 12 01 00 2A FF 
   908)     33765.8  Rx         0130  5  F7 FF FF FF FF 
   909)     33851.3  Rx         0799  7  1D 01 16 04 0F 03 0A 
   910)     33865.6  Rx         003C  8  7D A9 02 12 01 00 2A FF 
   911)     33865.8  Rx         0130  5  F7 FF FF FF FF 
   912)     33965.6  Rx         003C  8  9A AA 02 12 01 00 2A FF 
   913)     33966.1  Rx         0130  5  F7 FF FF FF FF 
   914)     34009.1  Rx         07C1  8  0C 18 00 0C FF 00 01 00 
   915)     34029.8  Rx         07DF  8  02 01 0D 00 00 00 00 00 
   916)     34035.7  Rx         07E8  8  03 41 0D 00 00 00 00 00 
   917)     34043.1  Rx         07E9  8  03 41 0D 00 AA AA AA AA 
   918)     34051.5  Rx         07EF  8  03 41 0D 00 FF FF FF FF 
   919)     34065.6  Rx         003C  8  C7 AB 02 12 01 00 2A FF 
   920)     34065.8  Rx         0130  5  F7 FF FF FF FF 
   921)     34165.5  Rx         003C  8  49 AC 02 12 01 00 2A FF 
   922)     34165.8  Rx         0130  5  F7 FF FF FF FF 
   923)     34265.5  Rx         003C  8  14 AD 02 12 01 00 2A FF 
   924)     34266.1  Rx         0130  5  F7 FF FF FF FF 
   925)     34352.2  Rx         0799  7  1B 01 16 04 12 03 0A 
   926)     34365.4  Rx         003C  8  F3 AE 02 12 01 00 2A FF 
   927)     34365.8  Rx         0130  5  F7 FF FF FF FF 
   928)     34427.6  Rx         07DF  8  02 01 01 00 00 00 00 00 
   929)     34435.6  Rx         07E8  8  06 41 01 00 07 E5 00 00 
   930)     34443.2  Rx         07E9  8  06 41 01 00 04 00 00 AA 
   931)     34451.6  Rx         07EF  8  06 41 01 00 04 00 00 FF 
   932)     34465.5  Rx         003C  8  F2 A0 02 12 01 00 2A FF 
   933)     34465.8  Rx         0130  5  F7 FF FF FF FF 
   934)     34565.6  Rx         003C  8  AF A1 02 12 01 00 2A FF 
   935)     34566.1  Rx         0130  5  F7 FF FF FF FF 
   936)     34665.7  Rx         003C  8  48 A2 02 12 01 00 2A FF 
   937)     34665.9  Rx         0130  5  F7 FF FF FF FF 
   938)     34765.5  Rx         003C  8  15 A3 02 12 01 00 2A FF 
   939)     34765.8  Rx         0130  5  F7 FF FF FF FF 
   940)     34829.8  Rx         07DF  8  02 01 33 00 00 00 00 00 
   941)     34835.6  Rx         07E8  8  03 41 33 50 00 00 00 00 
   942)     34855.4  Rx         0799  7  1D 01 16 04 10 03 0A 
   943)     34865.5  Rx         003C  8  9B A4 02 12 01 00 2A FF 
   944)     34866.1  Rx         0130  5  F7 FF FF FF FF 
   945)     34965.5  Rx         003C  8  C6 A5 02 12 01 00 2A FF 
   946)     34965.9  Rx         0130  5  F7 FF FF FF FF 
   947)     35009.2  Rx         07C1  8  0C 18 00 0C FF 00 01 00 
   948)     35065.5  Rx         003C  8  21 A6 02 12 01 00 2A FF 
   949)     35065.8  Rx         0130  5  F7 FF FF FF FF 
   950)     35165.5  Rx         003C  8  7C A7 02 12 01 00 2A FF 
   951)     35166.0  Rx         0130  5  F7 FF FF FF FF 
   952)     35265.5  Rx         003C  8  20 A8 02 12 01 00 2A FF 
   953)     35265.8  Rx         0130  5  F7 FF FF FF FF 
   954)     35355.7  Rx         0799  7  1A 01 16 04 12 03 0A 
   955)     35365.5  Rx         003C  8  7D A9 02 12 01 00 2A FF 
   956)     35365.8  Rx         0130  5  F7 FF FF FF FF 
   957)     35465.5  Rx         003C  8  9A AA 02 12 01 00 2A FF 
   958)     35466.1  Rx         0130  5  F7 FF FF FF FF 
   959)     35565.5  Rx         003C  8  C7 AB 02 12 01 00 2A FF 
   960)     35565.8  Rx         0130  5  F7 FF FF FF FF 
   961)     35629.9  Rx         07DF  8  02 01 A6 00 00 00 00 00 
   962)     35635.6  Rx         07E8  8  06 41 A6 00 14 53 8E 00 
   963)     35665.5  Rx         003C  8  49 AC 02 12 01 00 2A FF 
   964)     35665.8  Rx         0130  5  F7 FF FF FF FF 
   965)     35765.5  Rx         003C  8  14 AD 02 12 01 00 2A FF 
   966)     35766.0  Rx         0130  5  F7 FF FF FF FF 
   967)     35856.2  Rx         0799  7  1D 01 16 04 10 03 0A 
   968)     35865.5  Rx         003C  8  F3 AE 02 12 01 00 2A FF 
   969)     35865.8  Rx         0130  5  F7 FF FF FF FF 
   970)     35965.5  Rx         003C  8  F2 A0 02 12 01 00 2A FF 
   971)     35965.8  Rx         0130  5  F7 FF FF FF FF 
   972)     36009.2  Rx         07C1  8  0C 18 00 0C FF 00 01 00 
   973)     36029.8  Rx         07DF  8  02 01 2F 00 00 00 00 00 
   974)     36035.6  Rx         07E8  8  03 41 2F 26 00 00 00 00 
   975)     36065.5  Rx         003C  8  AF A1 02 12 01 00 2A FF 
   976)     36066.0  Rx         0130  5  F7 FF FF FF FF 
   977)     36165.5  Rx         003C  8  48 A2 02 12 01 00 2A FF 
   978)     36165.8  Rx         0130  5  F7 FF FF FF FF 
   979)     36265.6  Rx         003C  8  15 A3 02 12 01 00 2A FF 
   980)     36265.8  Rx         0130  5  F7 FF FF FF FF 
   981)     36361.4  Rx         0799  7  1A 01 16 04 11 03 0A 
   982)     36365.5  Rx         003C  8  9B A4 02 12 01 00 2A FF 
   983)     36366.0  Rx         0130  5  F7 FF FF FF FF 
   984)     36429.9  Rx         07DF  8  02 01 5C 00 00 00 00 00 
   985)     36435.6  Rx         07E8  8  03 41 5C 58 00 00 00 00 
   986)     36465.5  Rx         003C  8  C6 A5 02 12 01 00 2A FF 
   987)     36465.8  Rx         0130  5  F7 FF FF FF FF 
   988)     36565.5  Rx         003C  8  21 A6 02 12 01 00 2A FF 
   989)     36565.8  Rx         0130  5  F7 FF FF FF FF 
   990)     36665.5  Rx         003C  8  7C A7 02 12 01 00 2A FF 
   991)     36666.0  Rx         0130  5  F7 FF FF FF FF 
   992)     36765.5  Rx         003C  8  20 A8 02 12 01 00 2A FF 
   993)     36765.8  Rx         0130  5  F7 FF FF FF FF 
   994)     36830.5  Rx         07DF  8  02 01 9D 00 00 00 00 00 
   995)     36835.6  Rx         07E8  8  06 41 9D 00 0D 00 0D 00 
   996)     36865.1  Rx         0799  7  1C 01 16 04 10 03 0A 
   997)     36865.5  Rx         003C  8  7D A9 02 12 01 00 2A FF 
   998)     36865.8  Rx         0130  5  F7 FF FF FF FF 
   999)     36965.5  Rx         003C  8  9A AA 02 12 01 00 2A FF 
  1000)     36966.0  Rx         0130  5  F7 FF FF FF FF 
  1001)     37009.2  Rx         07C1  8  0C 18 00 0C FF 00 01 00 
  1002)     37065.5  Rx         003C  8  C7 AB 02 12 01 00 2A FF 
  1003)     37065.9  Rx         0130  5  F7 FF FF FF FF 
  1004)     37165.5  Rx         003C  8  49 AC 02 12 01 00 2A FF 
  1005)     37166.1  Rx         0130  5  F7 FF FF FF FF 
  1006)     37265.5  Rx         003C  8  14 AD 02 12 01 00 2A FF 
  1007)     37266.1  Rx         0130  5  F7 FF FF FF FF 
  1008)     37365.4  Rx         003C  8  F3 AE 02 12 01 00 2A FF 
  1009)     37365.9  Rx         0130  5  F7 FF FF FF FF 
  1010)     37370.3  Rx         0799  7  1A 01 16 04 12 03 0A 
  1011)     37465.6  Rx         003C  8  F2 A0 02 12 01 00 2A FF 
  1012)     37465.9  Rx         0130  5  F7 FF FF FF FF 
  1013)     37565.5  Rx         003C  8  AF A1 02 12 01 00 2A FF 
  1014)     37566.1  Rx         0130  5  F7 FF FF FF FF 
  1015)     37665.6  Rx         003C  8  48 A2 02 12 01 00 2A FF 
  1016)     37665.9  Rx         0130  5  F7 FF FF FF FF 
  1017)     37765.6  Rx         003C  8  15 A3 02 12 01 00 2A FF 
  1018)     37765.9  Rx         0130  5  F7 FF FF FF FF 
  1019)     37865.5  Rx         003C  8  9B A4 02 12 01 00 2A FF 
  1020)     37866.1  Rx         0130  5  F7 FF FF FF FF 
  1021)     37872.2  Rx         0799  7  1C 01 16 04 10 03 0A 
  1022)     37965.4  Rx         003C  8  C6 A5 02 12 01 00 2A FF 
  1023)     37965.8  Rx         0130  5  F7 FF FF FF FF 
  1024)     38009.2  Rx         07C1  8  0C 18 00 0C FF 00 01 00 
  1025)     38029.9  Rx         07DF  8  02 01 0C 00 00 00 00 00 
  1026)     38036.7  Rx         07E8  8  04 41 0C 0A 40 00 00 00 
  1027)     38044.1  Rx         07E9  8  04 41 0C 0A 2C AA AA AA 
  1028)     38051.5  Rx         07EF  8  04 41 0C 0A 2C FF FF FF 
  1029)     38065.5  Rx         003C  8  21 A6 02 12 01 00 2A FF 
  1030)     38065.8  Rx         0130  5  F7 FF FF FF FF 
  1031)     38165.5  Rx         003C  8  7C A7 02 12 01 00 2A FF 
  1032)     38166.1  Rx         0130  5  F7 FF FF FF FF 
  1033)     38265.5  Rx         003C  8  20 A8 02 12 01 00 2A FF 
  1034)     38265.8  Rx         0130  5  F7 FF FF FF FF 
  1035)     38365.5  Rx         003C  8  7D A9 02 12 01 00 2A FF 
  1036)     38365.8  Rx         0130  5  F7 FF FF FF FF 
  1037)     38386.1  Rx         0799  7  1B 01 16 04 12 03 0A 
  1038)     38429.8  Rx         07DF  8  02 01 11 00 00 00 00 00 
  1039)     38435.6  Rx         07E8  8  03 41 11 26 00 00 00 00 
  1040)     38443.5  Rx         07E9  8  03 41 11 25 AA AA AA AA 
  1041)     38451.6  Rx         07EF  8  03 41 11 25 FF FF FF FF 
  1042)     38465.5  Rx         003C  8  9A AA 02 12 01 00 2A FF 
  1043)     38466.1  Rx         0130  5  F7 FF FF FF FF 
  1044)     38565.4  Rx         003C  8  C7 AB 02 12 01 00 2A FF 
  1045)     38565.8  Rx         0130  5  F7 FF FF FF FF 
  1046)     38665.6  Rx         003C  8  49 AC 02 12 01 00 2A FF 
  1047)     38665.8  Rx         0130  5  F7 FF FF FF FF 
  1048)     38765.9  Rx         003C  8  14 AD 02 12 01 00 2A FF 
  1049)     38766.1  Rx         0130  5  F7 FF FF FF FF 
  1050)     38829.8  Rx         07DF  8  02 01 05 00 00 00 00 00 
  1051)     38835.6  Rx         07E8  8  03 41 05 5B 00 00 00 00 
  1052)     38844.2  Rx         07E9  8  03 41 05 5B AA AA AA AA 
  1053)     38851.6  Rx         07EF  8  03 41 05 5B FF FF FF FF 
  1054)     38865.6  Rx         003C  8  F3 AE 02 12 01 00 2A FF 
  1055)     38865.9  Rx         0130  5  F7 FF FF FF FF 
  1056)     38889.9  Rx         0799  7  1C 01 16 04 10 03 0A 
  1057)     38965.6  Rx         003C  8  F2 A0 02 12 01 00 2A FF 
  1058)     38965.8  Rx         0130  5  F7 FF FF FF FF 
  1059)     39009.2  Rx         07C1  8  0C 18 00 0C FF 00 01 00 
  1060)     39065.5  Rx         003C  8  AF A1 02 12 01 00 2A FF 
  1061)     39066.1  Rx         0130  5  F7 FF FF FF FF 
  1062)     39165.5  Rx         003C  8  48 A2 02 12 01 00 2A FF 
  1063)     39165.8  Rx         0130  5  F7 FF FF FF FF 
  1064)     39229.8  Rx         07DF  8  02 01 46 00 00 00 00 00 
  1065)     39235.6  Rx         07E8  8  03 41 46 2E 00 00 00 00 
  1066)     39265.6  Rx         003C  8  15 A3 02 12 01 00 2A FF 
  1067)     39265.8  Rx         0130  5  F7 FF FF FF FF 
  1068)     39365.4  Rx         003C  8  9B A4 02 12 01 00 2A FF 
  1069)     39366.1  Rx         0130  5  F7 FF FF FF FF 
  1070)     39393.1  Rx         0799  7  1B 01 16 04 12 03 0A 
  1071)     39465.4  Rx         003C  8  C6 A5 02 12 01 00 2A FF 
  1072)     39465.8  Rx         0130  5  F7 FF FF FF FF 
  1073)     39565.4  Rx         003C  8  21 A6 02 12 01 00 2A FF 
  1074)     39565.7  Rx         0130  5  F7 FF FF FF FF 
  1075)     39630.4  Rx         07DF  8  02 01 0D 00 00 00 00 00 
  1076)     39635.6  Rx         07E8  8  03 41 0D 00 00 00 00 00 
  1077)     39643.4  Rx         07E9  8  03 41 0D 00 AA AA AA AA 
  1078)     39651.5  Rx         07EF  8  03 41 0D 00 FF FF FF FF 
  1079)     39665.4  Rx         003C  8  7C A7 02 12 01 00 2A FF 
  1080)     39666.1  Rx         0130  5  F7 FF FF FF FF 
  1081)     39765.4  Rx         003C  8  20 A8 02 12 01 00 2A FF 
  1082)     39765.8  Rx         0130  5  F7 FF FF FF FF 
  1083)     39865.4  Rx         003C  8  7D A9 02 12 01 00 2A FF 
  1084)     39865.7  Rx         0130  5  F7 FF FF FF FF 
  1085)     39894.6  Rx         0799  7  1D 01 16 04 10 03 0A 
  1086)     39965.5  Rx         003C  8  9A AA 02 12 01 00 2A FF 
  1087)     39966.0  Rx         0130  5  F7 FF FF FF FF 
  1088)     40009.2  Rx         07C1  8  0C 18 00 0C FF 00 01 00 
  1089)     40027.6  Rx         07DF  8  02 01 01 00 00 00 00 00 
  1090)     40035.6  Rx         07E8  8  06 41 01 00 07 E5 00 00 
  1091)     40043.4  Rx         07E9  8  06 41 01 00 04 00 00 AA 
  1092)     40051.6  Rx         07EF  8  06 41 01 00 04 00 00 FF 
  1093)     40065.4  Rx         003C  8  C7 AB 02 12 01 00 2A FF 
  1094)     40065.7  Rx         0130  5  F7 FF FF FF FF 
  1095)     40165.4  Rx         003C  8  49 AC 02 12 01 00 2A FF 
  1096)     40165.7  Rx         0130  5  F7 FF FF FF FF 
  1097)     40265.4  Rx         003C  8  14 AD 02 12 01 00 2A FF 
  1098)     40266.0  Rx         0130  5  F7 FF FF FF FF 
  1099)     40365.4  Rx         003C  8  F3 AE 02 12 01 00 2A FF 
  1100)     40365.7  Rx         0130  5  F7 FF FF FF FF 
  1101)     40396.1  Rx         0799  7  1B 01 16 04 12 03 0A 
  1102)     40429.8  Rx         07DF  8  02 01 33 00 00 00 00 00 
  1103)     40435.5  Rx         07E8  8  03 41 33 50 00 00 00 00 
  1104)     40465.5  Rx         003C  8  F2 A0 02 12 01 00 2A FF 
  1105)     40465.8  Rx         0130  5  F7 FF FF FF FF 
  1106)     40565.4  Rx         003C  8  AF A1 02 12 01 00 2A FF 
  1107)     40566.1  Rx         0130  5  F7 FF FF FF FF 
  1108)     40665.4  Rx         003C  8  48 A2 02 12 01 00 2A FF 
  1109)     40665.7  Rx         0130  5  F7 FF FF FF FF 
  1110)     40765.4  Rx         003C  8  15 A3 02 12 01 00 2A FF 
  1111)     40765.7  Rx         0130  5  F7 FF FF FF FF 
  1112)     40865.4  Rx         003C  8  9B A4 02 12 01 00 2A FF 
  1113)     40866.0  Rx         0130  5  F7 FF FF FF FF 
  1114)     40901.2  Rx         0799  7  1C 01 16 04 10 03 0A 
  1115)     40965.4  Rx         003C  8  C6 A5 02 12 01 00 2A FF 
  1116)     40965.8  Rx         0130  5  F7 FF FF FF FF 
