;$FILEVERSION=1.1
;$STARTTIME=46004.4873519676
;
;   Start time: 12/13/2025 11:41:47.210.0
;   Generated by PCAN-View v5.3.2.952
;
;   Message Number
;   |         Time Offset (ms)
;   |         |        Type
;   |         |        |        ID (hex)
;   |         |        |        |     Data Length
;   |         |        |        |     |   Data Bytes (hex) ...
;   |         |        |        |     |   |
;---+--   ----+----  --+--  ----+---  +  -+ -- -- -- -- -- -- --
     1)        65.3  Rx         003C  8  9B A4 02 12 01 00 2A FF 
     2)        65.8  Rx         0130  5  F7 FF FF FF FF 
     3)       165.4  Rx         003C  8  C6 A5 02 12 01 00 2A FF 
     4)       165.7  Rx         0130  5  F7 FF FF FF FF 
     5)       265.4  Rx         003C  8  21 A6 02 12 01 00 2A FF 
     6)       265.6  Rx         0130  5  F7 FF FF FF FF 
     7)       365.4  Rx         003C  8  7C A7 02 12 01 00 2A FF 
     8)       365.9  Rx         0130  5  F7 FF FF FF FF 
     9)       425.7  Rx         0799  7  1C 01 16 04 11 03 0A 
    10)       465.4  Rx         003C  8  20 A8 02 12 01 00 2A FF 
    11)       465.6  Rx         0130  5  F7 FF FF FF FF 
    12)       565.5  Rx         003C  8  7D A9 02 12 01 00 2A FF 
    13)       565.6  Rx         0130  5  F7 FF FF FF FF 
    14)       665.3  Rx         003C  8  9A AA 02 12 01 00 2A FF 
    15)       665.9  Rx         0130  5  F7 FF FF FF FF 
    16)       721.1  Rx         07C1  8  0C 18 00 0C FF 00 01 00 
    17)       765.4  Rx         003C  8  C7 AB 02 12 01 00 2A FF 
    18)       765.6  Rx         0130  5  F7 FF FF FF FF 
    19)       865.3  Rx         003C  8  49 AC 02 12 01 00 2A FF 
    20)       865.6  Rx         0130  5  F7 FF FF FF FF 
    21)       926.2  Rx         0799  7  1D 01 16 04 0F 03 0A 
    22)       965.3  Rx         003C  8  14 AD 02 12 01 00 2A FF 
    23)       965.8  Rx         0130  5  F7 FF FF FF FF 
    24)      1065.3  Rx         003C  8  F3 AE 02 12 01 00 2A FF 
    25)      1065.5  Rx         0130  5  F7 FF FF FF FF 
    26)      1165.5  Rx         003C  8  F2 A0 02 12 01 00 2A FF 
    27)      1165.8  Rx         0130  5  F7 FF FF FF FF 
    28)      1265.4  Rx         003C  8  AF A1 02 12 01 00 2A FF 
    29)      1265.9  Rx         0130  5  F7 FF FF FF FF 
    30)      1365.3  Rx         003C  8  48 A2 02 12 01 00 2A FF 
    31)      1365.6  Rx         0130  5  F7 FF FF FF FF 
    32)      1427.6  Rx         0799  7  1B 01 16 04 12 03 0A 
    33)      1465.3  Rx         003C  8  15 A3 02 12 01 00 2A FF 
    34)      1465.6  Rx         0130  5  F7 FF FF FF FF 
    35)      1565.4  Rx         003C  8  9B A4 02 12 01 00 2A FF 
    36)      1565.8  Rx         0130  5  F7 FF FF FF FF 
    37)      1665.3  Rx         003C  8  C6 A5 02 12 01 00 2A FF 
    38)      1665.6  Rx         0130  5  F7 FF FF FF FF 
    39)      1721.1  Rx         07C1  8  0C 18 00 0C FF 00 01 00 
    40)      1765.4  Rx         003C  8  21 A6 02 12 01 00 2A FF 
    41)      1765.6  Rx         0130  5  F7 FF FF FF FF 
    42)      1865.3  Rx         003C  8  7C A7 02 12 01 00 2A FF 
    43)      1865.8  Rx         0130  5  F7 FF FF FF FF 
    44)      1927.2  Rx         0799  7  1C 01 16 04 10 03 0A 
    45)      1965.4  Rx         003C  8  20 A8 02 12 01 00 2A FF 
    46)      1965.7  Rx         0130  5  F7 FF FF FF FF 
    47)      2065.3  Rx         003C  8  7D A9 02 12 01 00 2A FF 
    48)      2065.6  Rx         0130  5  F7 FF FF FF FF 
    49)      2165.5  Rx         003C  8  9A AA 02 12 01 00 2A FF 
    50)      2165.9  Rx         0130  5  F7 FF FF FF FF 
    51)      2265.4  Rx         003C  8  C7 AB 02 12 01 00 2A FF 
    52)      2265.6  Rx         0130  5  F7 FF FF FF FF 
    53)      2365.4  Rx         003C  8  49 AC 02 12 01 00 2A FF 
    54)      2365.7  Rx         0130  5  F7 FF FF FF FF 
    55)      2431.3  Rx         0799  7  1C 01 16 04 11 03 0A 
    56)      2465.3  Rx         003C  8  14 AD 02 12 01 00 2A FF 
    57)      2465.9  Rx         0130  5  F7 FF FF FF FF 
    58)      2565.4  Rx         003C  8  F3 AE 02 12 01 00 2A FF 
    59)      2565.6  Rx         0130  5  F7 FF FF FF FF 
    60)      2665.3  Rx         003C  8  F2 A0 02 12 01 00 2A FF 
    61)      2665.6  Rx         0130  5  F7 FF FF FF FF 
    62)      2721.2  Rx         07C1  8  0C 18 00 0C FF 00 01 00 
    63)      2765.3  Rx         003C  8  AF A1 02 12 01 00 2A FF 
    64)      2765.8  Rx         0130  5  F7 FF FF FF FF 
    65)      2865.4  Rx         003C  8  48 A2 02 12 01 00 2A FF 
    66)      2865.6  Rx         0130  5  F7 FF FF FF FF 
    67)      2938.5  Rx         0799  7  1C 01 16 04 10 03 0A 
    68)      2965.4  Rx         003C  8  15 A3 02 12 01 00 2A FF 
    69)      2965.6  Rx         0130  5  F7 FF FF FF FF 
    70)      3065.2  Rx         003C  8  9B A4 02 12 01 00 2A FF 
    71)      3065.9  Rx         0130  5  F7 FF FF FF FF 
    72)      3165.3  Rx         003C  8  C6 A5 02 12 01 00 2A FF 
    73)      3165.6  Rx         0130  5  F7 FF FF FF FF 
    74)      3265.2  Rx         003C  8  21 A6 02 12 01 00 2A FF 
    75)      3265.6  Rx         0130  5  F7 FF FF FF FF 
    76)      3365.3  Rx         003C  8  7C A7 02 12 01 00 2A FF 
    77)      3365.9  Rx         0130  5  F7 FF FF FF FF 
    78)      3441.3  Rx         0799  7  1C 01 16 04 11 03 0A 
    79)      3465.2  Rx         003C  8  20 A8 02 12 01 00 2A FF 
    80)      3465.6  Rx         0130  5  F7 FF FF FF FF 
    81)      3565.4  Rx         003C  8  7D A9 02 12 01 00 2A FF 
    82)      3565.6  Rx         0130  5  F7 FF FF FF FF 
    83)      3665.4  Rx         003C  8  9A AA 02 12 01 00 2A FF 
    84)      3665.9  Rx         0130  5  F7 FF FF FF FF 
    85)      3723.2  Rx         07C1  8  0C 18 00 0C FF 00 01 00 
    86)      3765.4  Rx         003C  8  C7 AB 02 12 01 00 2A FF 
    87)      3766.2  Rx         0130  5  F7 FF FF FF FF 
    88)      3865.4  Rx         003C  8  49 AC 02 12 01 00 2A FF 
    89)      3865.6  Rx         0130  5  F7 FF FF FF FF 
    90)      3946.3  Rx         0799  7  1C 01 16 04 0F 03 0A 
    91)      3965.5  Rx         003C  8  14 AD 02 12 01 00 2A FF 
    92)      3966.3  Rx         0130  5  F7 FF FF FF FF 
    93)      4065.3  Rx         003C  8  F3 AE 02 12 01 00 2A FF 
    94)      4065.8  Rx         0130  5  F7 FF FF FF FF 
    95)      4165.4  Rx         003C  8  F2 A0 02 12 01 00 2A FF 
    96)      4165.8  Rx         0130  5  F7 FF FF FF FF 
    97)      4265.3  Rx         003C  8  AF A1 02 12 01 00 2A FF 
    98)      4266.2  Rx         0130  5  F7 FF FF FF FF 
    99)      4365.4  Rx         003C  8  48 A2 02 12 01 00 2A FF 
   100)      4365.9  Rx         0130  5  F7 FF FF FF FF 
   101)      4446.5  Rx         0799  7  1C 01 16 04 11 03 0A 
   102)      4465.3  Rx         003C  8  15 A3 02 12 01 00 2A FF 
   103)      4465.8  Rx         0130  5  F7 FF FF FF FF 
   104)      4565.7  Rx         003C  8  9B A4 02 12 01 00 2A FF 
   105)      4566.3  Rx         0130  5  F7 FF FF FF FF 
   106)      4665.3  Rx         003C  8  C6 A5 02 12 01 00 2A FF 
   107)      4665.8  Rx         0130  5  F7 FF FF FF FF 
   108)      4725.2  Rx         07C1  8  0C 18 00 0C FF 00 01 00 
   109)      4765.5  Rx         003C  8  21 A6 02 12 01 00 2A FF 
   110)      4765.9  Rx         0130  5  F7 FF FF FF FF 
   111)      4865.5  Rx         003C  8  7C A7 02 12 01 00 2A FF 
   112)      4866.1  Rx         0130  5  F7 FF FF FF FF 
   113)      4950.7  Rx         0799  7  1D 01 16 04 0F 03 0A 
   114)      4965.5  Rx         003C  8  20 A8 02 12 01 00 2A FF 
   115)      4965.9  Rx         0130  5  F7 FF FF FF FF 
   116)      5065.4  Rx         003C  8  7D A9 02 12 01 00 2A FF 
   117)      5065.8  Rx         0130  5  F7 FF FF FF FF 
   118)      5165.5  Rx         003C  8  9A AA 02 12 01 00 2A FF 
   119)      5166.1  Rx         0130  5  F7 FF FF FF FF 
   120)      5265.2  Rx         003C  8  C7 AB 02 12 01 00 2A FF 
   121)      5265.5  Rx         0130  5  F7 FF FF FF FF 
   122)      5365.4  Rx         003C  8  49 AC 02 12 01 00 2A FF 
   123)      5365.8  Rx         0130  5  F7 FF FF FF FF 
   124)      5450.6  Rx         0799  7  1B 01 16 04 11 03 0A 
   125)      5465.4  Rx         003C  8  14 AD 02 12 01 00 2A FF 
   126)      5466.0  Rx         0130  5  F7 FF FF FF FF 
   127)      5565.4  Rx         003C  8  F3 AE 02 12 01 00 2A FF 
   128)      5565.9  Rx         0130  5  F7 FF FF FF FF 
   129)      5665.4  Rx         003C  8  F2 A0 02 12 01 00 2A FF 
   130)      5665.7  Rx         0130  5  F7 FF FF FF FF 
   131)      5726.1  Rx         07C1  8  0C 18 00 0C FF 00 01 00 
   132)      5765.5  Rx         003C  8  AF A1 02 12 01 00 2A FF 
   133)      5765.9  Rx         0130  5  F7 FF FF FF FF 
   134)      5865.1  Rx         003C  8  48 A2 02 12 01 00 2A FF 
   135)      5865.5  Rx         0130  5  F7 FF FF FF FF 
   136)      5950.4  Rx         0799  7  1C 01 16 04 10 03 0A 
   137)      5965.4  Rx         003C  8  15 A3 02 12 01 00 2A FF 
   138)      5965.8  Rx         0130  5  F7 FF FF FF FF 
   139)      6065.2  Rx         003C  8  9B A4 02 12 01 00 2A FF 
   140)      6066.0  Rx         0130  5  F7 FF FF FF FF 
   141)      6165.3  Rx         003C  8  C6 A5 02 12 01 00 2A FF 
   142)      6165.8  Rx         0130  5  F7 FF FF FF FF 
   143)      6265.3  Rx         003C  8  21 A6 02 12 01 00 2A FF 
   144)      6265.7  Rx         0130  5  F7 FF FF FF FF 
   145)      6365.4  Rx         003C  8  7C A7 02 12 01 00 2A FF 
   146)      6366.0  Rx         0130  5  F7 FF FF FF FF 
   147)      6455.9  Rx         0799  7  1C 01 16 04 11 03 0A 
   148)      6465.3  Rx         003C  8  20 A8 02 12 01 00 2A FF 
   149)      6465.8  Rx         0130  5  F7 FF FF FF FF 
   150)      6565.4  Rx         003C  8  7D A9 02 12 01 00 2A FF 
   151)      6565.7  Rx         0130  5  F7 FF FF FF FF 
   152)      6665.3  Rx         003C  8  9A AA 02 12 01 00 2A FF 
   153)      6666.0  Rx         0130  5  F7 FF FF FF FF 
   154)      6726.1  Rx         07C1  8  0C 18 00 0C FF 00 01 00 
   155)      6765.4  Rx         003C  8  C7 AB 02 12 01 00 2A FF 
   156)      6765.8  Rx         0130  5  F7 FF FF FF FF 
   157)      6865.3  Rx         003C  8  49 AC 02 12 01 00 2A FF 
   158)      6865.7  Rx         0130  5  F7 FF FF FF FF 
   159)      6961.4  Rx         0799  7  1C 01 16 04 10 03 0A 
   160)      6965.3  Rx         003C  8  14 AD 02 12 01 00 2A FF 
   161)      6966.0  Rx         0130  5  F7 FF FF FF FF 
   162)      7065.1  Rx         003C  8  F3 AE 02 12 01 00 2A FF 
   163)      7065.7  Rx         0130  5  F7 FF FF FF FF 
   164)      7165.3  Rx         003C  8  F2 A0 02 12 01 00 2A FF 
   165)      7165.8  Rx         0130  5  F7 FF FF FF FF 
   166)      7265.2  Rx         003C  8  AF A1 02 12 01 00 2A FF 
   167)      7265.9  Rx         0130  5  F7 FF FF FF FF 
   168)      7365.1  Rx         003C  8  48 A2 02 12 01 00 2A FF 
   169)      7365.6  Rx         0130  5  F7 FF FF FF FF 
   170)      7461.1  Rx         0799  7  1B 01 16 04 12 03 0A 
   171)      7465.2  Rx         003C  8  15 A3 02 12 01 00 2A FF 
   172)      7465.6  Rx         0130  5  F7 FF FF FF FF 
   173)      7565.3  Rx         003C  8  9B A4 02 12 01 00 2A FF 
   174)      7565.9  Rx         0130  5  F7 FF FF FF FF 
   175)      7665.2  Rx         003C  8  C6 A5 02 12 01 00 2A FF 
   176)      7665.7  Rx         0130  5  F7 FF FF FF FF 
   177)      7726.0  Rx         07C1  8  0C 18 00 0C FF 00 01 00 
   178)      7765.3  Rx         003C  8  21 A6 02 12 01 00 2A FF 
   179)      7765.6  Rx         0130  5  F7 FF FF FF FF 
   180)      7865.1  Rx         003C  8  7C A7 02 12 01 00 2A FF 
   181)      7865.9  Rx         0130  5  F7 FF FF FF FF 
   182)      7965.3  Rx         003C  8  20 A8 02 12 01 00 2A FF 
   183)      7965.7  Rx         0130  5  F7 FF FF FF FF 
   184)      7966.1  Rx         0799  7  1C 01 16 04 0F 03 0A 
   185)      8065.0  Rx         003C  8  7D A9 02 12 01 00 2A FF 
   186)      8065.6  Rx         0130  5  F7 FF FF FF FF 
   187)      8165.1  Rx         003C  8  9A AA 02 12 01 00 2A FF 
   188)      8165.9  Rx         0130  5  F7 FF FF FF FF 
   189)      8265.1  Rx         003C  8  C7 AB 02 12 01 00 2A FF 
   190)      8265.7  Rx         0130  5  F7 FF FF FF FF 
   191)      8365.4  Rx         003C  8  49 AC 02 12 01 00 2A FF 
   192)      8365.7  Rx         0130  5  F7 FF FF FF FF 
   193)      8465.0  Rx         003C  8  14 AD 02 12 01 00 2A FF 
   194)      8465.9  Rx         0130  5  F7 FF FF FF FF 
   195)      8466.8  Rx         0799  7  1C 01 16 04 11 03 0A 
   196)      8565.1  Rx         003C  8  F3 AE 02 12 01 00 2A FF 
   197)      8565.4  Rx         0130  5  F7 FF FF FF FF 
   198)      8665.2  Rx         003C  8  F2 A0 02 12 01 00 2A FF 
   199)      8665.8  Rx         0130  5  F7 FF FF FF FF 
   200)      8726.0  Rx         07C1  8  0C 18 00 0C FF 00 01 00 
   201)      8765.7  Rx         003C  8  AF A1 02 12 01 00 2A FF 
   202)      8766.4  Rx         0130  5  F7 FF FF FF FF 
   203)      8865.1  Rx         003C  8  48 A2 02 12 01 00 2A FF 
   204)      8865.4  Rx         0130  5  F7 FF FF FF FF 
   205)      8965.0  Rx         003C  8  15 A3 02 12 01 00 2A FF 
   206)      8965.6  Rx         0130  5  F7 FF FF FF FF 
   207)      8966.5  Rx         0799  7  1C 01 16 04 0F 03 0A 
   208)      9065.2  Rx         003C  8  9B A4 02 12 01 00 2A FF 
   209)      9065.9  Rx         0130  5  F7 FF FF FF FF 
   210)      9165.4  Rx         003C  8  C6 A5 02 12 01 00 2A FF 
   211)      9165.8  Rx         0130  5  F7 FF FF FF FF 
   212)      9265.2  Rx         003C  8  21 A6 02 12 01 00 2A FF 
   213)      9265.9  Rx         0130  5  F7 FF FF FF FF 
   214)      9365.3  Rx         003C  8  7C A7 02 12 01 00 2A FF 
   215)      9366.0  Rx         0130  5  F7 FF FF FF FF 
   216)      9465.4  Rx         003C  8  20 A8 02 12 01 00 2A FF 
   217)      9465.7  Rx         0130  5  F7 FF FF FF FF 
   218)      9471.2  Rx         0799  7  1B 01 16 04 11 03 0A 
   219)      9565.3  Rx         003C  8  7D A9 02 12 01 00 2A FF 
   220)      9565.8  Rx         0130  5  F7 FF FF FF FF 
   221)      9665.3  Rx         003C  8  9A AA 02 12 01 00 2A FF 
   222)      9665.9  Rx         0130  5  F7 FF FF FF FF 
   223)      9726.0  Rx         07C1  8  0C 18 00 0C FF 00 01 00 
   224)      9765.4  Rx         003C  8  C7 AB 02 12 01 00 2A FF 
   225)      9765.6  Rx         0130  5  F7 FF FF FF FF 
   226)      9865.0  Rx         003C  8  49 AC 02 12 01 00 2A FF 
   227)      9865.6  Rx         0130  5  F7 FF FF FF FF 
   228)      9965.3  Rx         003C  8  14 AD 02 12 01 00 2A FF 
   229)      9965.9  Rx         0130  5  F7 FF FF FF FF 
   230)      9975.8  Rx         0799  7  1C 01 17 04 0F 03 0A 
   231)     10065.3  Rx         003C  8  F3 AE 02 12 01 00 2A FF 
   232)     10065.6  Rx         0130  5  F7 FF FF FF FF 
   233)     10165.3  Rx         003C  8  F2 A0 02 12 01 00 2A FF 
   234)     10165.7  Rx         0130  5  F7 FF FF FF FF 
   235)     10265.1  Rx         003C  8  AF A1 02 12 01 00 2A FF 
   236)     10265.9  Rx         0130  5  F7 FF FF FF FF 
   237)     10365.3  Rx         003C  8  48 A2 02 12 01 00 2A FF 
   238)     10365.7  Rx         0130  5  F7 FF FF FF FF 
   239)     10465.2  Rx         003C  8  15 A3 02 12 01 00 2A FF 
   240)     10465.8  Rx         0130  5  F7 FF FF FF FF 
   241)     10475.5  Rx         0799  7  1B 01 16 04 12 03 0A 
   242)     10565.3  Rx         003C  8  9B A4 02 12 01 00 2A FF 
   243)     10565.9  Rx         0130  5  F7 FF FF FF FF 
   244)     10665.2  Rx         003C  8  C6 A5 02 12 01 00 2A FF 
   245)     10665.7  Rx         0130  5  F7 FF FF FF FF 
   246)     10726.0  Rx         07C1  8  0C 18 00 0C FF 00 01 00 
   247)     10765.5  Rx         003C  8  21 A6 02 12 01 00 2A FF 
   248)     10765.7  Rx         0130  5  F7 FF FF FF FF 
   249)     10865.1  Rx         003C  8  7C A7 02 12 01 00 2A FF 
   250)     10865.9  Rx         0130  5  F7 FF FF FF FF 
   251)     10965.3  Rx         003C  8  20 A8 02 12 01 00 2A FF 
   252)     10965.7  Rx         0130  5  F7 FF FF FF FF 
   253)     10975.4  Rx         0799  7  1C 01 17 04 0F 03 0A 
   254)     11065.0  Rx         003C  8  7D A9 02 12 01 00 2A FF 
   255)     11065.6  Rx         0130  5  F7 FF FF FF FF 
   256)     11165.4  Rx         003C  8  9A AA 02 12 01 00 2A FF 
   257)     11166.1  Rx         0130  5  F7 FF FF FF FF 
   258)     11265.3  Rx         003C  8  C7 AB 02 12 01 00 2A FF 
   259)     11265.6  Rx         0130  5  F7 FF FF FF FF 
   260)     11365.1  Rx         003C  8  49 AC 02 12 01 00 2A FF 
   261)     11365.4  Rx         0130  5  F7 FF FF FF FF 
   262)     11465.1  Rx         003C  8  14 AD 02 12 01 00 2A FF 
   263)     11465.9  Rx         0130  5  F7 FF FF FF FF 
   264)     11475.5  Rx         0799  7  1B 01 16 04 11 03 0A 
   265)     11565.4  Rx         003C  8  F3 AE 02 12 01 00 2A FF 
   266)     11565.7  Rx         0130  5  F7 FF FF FF FF 
   267)     11665.1  Rx         003C  8  F2 A0 02 12 01 00 2A FF 
   268)     11665.6  Rx         0130  5  F7 FF FF FF FF 
   269)     11726.0  Rx         07C1  8  0C 18 00 0C FF 00 01 00 
   270)     11731.7  Rx         07DF  8  02 01 00 00 00 00 00 00 
   271)     11735.8  Rx         07E8  8  06 41 00 BE 3F A8 13 00 
   272)     11751.0  Rx         07E9  8  06 41 00 98 18 80 01 AA 
   273)     11756.8  Rx         07EF  8  06 41 00 98 18 80 01 FF 
   274)     11765.4  Rx         003C  8  AF A1 02 12 01 00 2A FF 
   275)     11765.9  Rx         0130  5  F7 FF FF FF FF 
   276)     11865.3  Rx         003C  8  48 A2 02 12 01 00 2A FF 
   277)     11865.6  Rx         0130  5  F7 FF FF FF FF 
   278)     11965.3  Rx         003C  8  15 A3 02 12 01 00 2A FF 
   279)     11965.7  Rx         0130  5  F7 FF FF FF FF 
   280)     11978.5  Rx         0799  7  1C 01 16 04 0F 03 0A 
   281)     12065.1  Rx         003C  8  9B A4 02 12 01 00 2A FF 
   282)     12065.8  Rx         0130  5  F7 FF FF FF FF 
   283)     12165.1  Rx         003C  8  C6 A5 02 12 01 00 2A FF 
   284)     12165.5  Rx         0130  5  F7 FF FF FF FF 
   285)     12192.5  Rx         07DF  8  02 09 02 00 00 00 00 00 
   286)     12195.7  Rx         07E8  8  10 14 49 02 01 35 55 58 
   287)     12196.1  Rx         07E0  8  30 00 00 00 00 00 00 00 
   288)     12197.7  Rx         07E8  8  21 54 53 33 43 35 58 4B 
   289)     12200.6  Rx         07E8  8  22 30 5A 30 32 36 35 36 
   290)     12265.1  Rx         003C  8  21 A6 02 12 01 00 2A FF 
   291)     12265.6  Rx         0130  5  F7 FF FF FF FF 
   292)     12365.5  Rx         003C  8  7C A7 02 12 01 00 2A FF 
   293)     12365.9  Rx         0130  5  F7 FF FF FF FF 
   294)     12465.3  Rx         003C  8  20 A8 02 12 01 00 2A FF 
   295)     12465.6  Rx         0130  5  F7 FF FF FF FF 
   296)     12482.6  Rx         0799  7  1B 01 16 04 11 03 0A 
   297)     12565.1  Rx         003C  8  7D A9 02 12 01 00 2A FF 
   298)     12565.6  Rx         0130  5  F7 FF FF FF FF 
   299)     12665.1  Rx         003C  8  9A AA 02 12 01 00 2A FF 
   300)     12665.9  Rx         0130  5  F7 FF FF FF FF 
   301)     12726.1  Rx         07C1  8  0C 18 00 0C FF 00 01 00 
   302)     12765.1  Rx         003C  8  C7 AB 02 12 01 00 2A FF 
   303)     12765.5  Rx         0130  5  F7 FF FF FF FF 
   304)     12865.0  Rx         003C  8  49 AC 02 12 01 00 2A FF 
   305)     12865.6  Rx         0130  5  F7 FF FF FF FF 
   306)     12965.3  Rx         003C  8  14 AD 02 12 01 00 2A FF 
   307)     12965.9  Rx         0130  5  F7 FF FF FF FF 
   308)     12987.2  Rx         0799  7  1D 01 16 04 0F 03 0A 
   309)     13065.1  Rx         003C  8  F3 AE 02 12 01 00 2A FF 
   310)     13065.6  Rx         0130  5  F7 FF FF FF FF 
   311)     13165.1  Rx         003C  8  F2 A0 02 12 01 00 2A FF 
   312)     13165.8  Rx         0130  5  F7 FF FF FF FF 
   313)     13265.1  Rx         003C  8  AF A1 02 12 01 00 2A FF 
   314)     13265.9  Rx         0130  5  F7 FF FF FF FF 
   315)     13365.3  Rx         003C  8  48 A2 02 12 01 00 2A FF 
   316)     13365.6  Rx         0130  5  F7 FF FF FF FF 
   317)     13465.1  Rx         003C  8  15 A3 02 12 01 00 2A FF 
   318)     13465.6  Rx         0130  5  F7 FF FF FF FF 
   319)     13488.3  Rx         0799  7  1B 01 16 04 12 03 0A 
   320)     13565.3  Rx         003C  8  9B A4 02 12 01 00 2A FF 
   321)     13565.9  Rx         0130  5  F7 FF FF FF FF 
   322)     13585.2  Rx         07DF  8  02 01 00 00 00 00 00 00 
   323)     13595.8  Rx         07E8  8  06 41 00 BE 3F A8 13 00 
   324)     13602.0  Rx         07E9  8  06 41 00 98 18 80 01 AA 
   325)     13607.0  Rx         07EF  8  06 41 00 98 18 80 01 FF 
   326)     13665.1  Rx         003C  8  C6 A5 02 12 01 00 2A FF 
   327)     13665.7  Rx         0130  5  F7 FF FF FF FF 
   328)     13726.1  Rx         07C1  8  0C 18 00 0C FF 00 01 00 
   329)     13766.0  Rx         003C  8  21 A6 02 12 01 00 2A FF 
   330)     13766.3  Rx         0130  5  F7 FF FF FF FF 
   331)     13835.0  Rx         07DF  8  02 01 20 00 00 00 00 00 
   332)     13845.8  Rx         07E8  8  06 41 20 A0 07 B0 11 00 
   333)     13851.0  Rx         07E9  8  06 41 20 80 00 00 01 AA 
   334)     13857.1  Rx         07EF  8  06 41 20 80 00 00 01 FF 
   335)     13865.1  Rx         003C  8  7C A7 02 12 01 00 2A FF 
   336)     13865.9  Rx         0130  5  F7 FF FF FF FF 
   337)     13965.1  Rx         003C  8  20 A8 02 12 01 00 2A FF 
   338)     13965.6  Rx         0130  5  F7 FF FF FF FF 
   339)     13988.5  Rx         0799  7  1E 01 17 04 0E 03 0A 
   340)     14065.1  Rx         003C  8  7D A9 02 12 01 00 2A FF 
   341)     14065.6  Rx         0130  5  F7 FF FF FF FF 
   342)     14079.5  Rx         07DF  8  02 01 40 00 00 00 00 00 
   343)     14085.9  Rx         07E8  8  06 41 40 FE D0 84 11 00 
   344)     14101.9  Rx         07EF  8  06 41 40 C0 00 00 00 FF 
   345)     14102.1  Rx         07E9  8  06 41 40 C0 00 00 00 AA 
   346)     14165.4  Rx         003C  8  9A AA 02 12 01 00 2A FF 
   347)     14165.9  Rx         0130  5  F7 FF FF FF FF 
   348)     14265.4  Rx         003C  8  C7 AB 02 12 01 00 2A FF 
   349)     14265.9  Rx         0130  5  F7 FF FF FF FF 
   350)     14328.5  Rx         07DF  8  02 01 60 00 00 00 00 00 
   351)     14335.8  Rx         07E8  8  06 41 60 61 00 00 01 00 
   352)     14365.4  Rx         003C  8  49 AC 02 12 01 00 2A FF 
   353)     14365.7  Rx         0130  5  F7 FF FF FF FF 
   354)     14465.3  Rx         003C  8  14 AD 02 12 01 00 2A FF 
   355)     14465.9  Rx         0130  5  F7 FF FF FF FF 
   356)     14488.2  Rx         0799  7  1A 01 17 04 12 03 0A 
   357)     14565.3  Rx         003C  8  F3 AE 02 12 01 00 2A FF 
   358)     14565.7  Rx         0130  5  F7 FF FF FF FF 
   359)     14577.5  Rx         07DF  8  02 01 80 00 00 00 00 00 
   360)     14585.8  Rx         07E8  8  06 41 80 00 04 00 0D 00 
   361)     14665.3  Rx         003C  8  F2 A0 02 12 01 00 2A FF 
   362)     14665.7  Rx         0130  5  F7 FF FF FF FF 
   363)     14726.0  Rx         07C1  8  0C 18 00 0C FF 00 01 00 
   364)     14765.6  Rx         003C  8  AF A1 02 12 01 00 2A FF 
   365)     14765.9  Rx         0130  5  F7 FF FF FF FF 
   366)     14826.5  Rx         07DF  8  02 01 A0 00 00 00 00 00 
   367)     14835.8  Rx         07E8  8  06 41 A0 04 00 00 00 00 
   368)     14865.1  Rx         003C  8  48 A2 02 12 01 00 2A FF 
   369)     14865.4  Rx         0130  5  F7 FF FF FF FF 
   370)     14965.1  Rx         003C  8  15 A3 02 12 01 00 2A FF 
   371)     14965.4  Rx         0130  5  F7 FF FF FF FF 
   372)     14991.6  Rx         0799  7  1D 01 16 04 0F 03 0A 
   373)     15065.1  Rx         003C  8  9B A4 02 12 01 00 2A FF 
   374)     15066.1  Rx         0130  5  F7 FF FF FF FF 
   375)     15165.6  Rx         003C  8  C6 A5 02 12 01 00 2A FF 
   376)     15165.8  Rx         0130  5  F7 FF FF FF FF 
   377)     15265.1  Rx         003C  8  21 A6 02 12 01 00 2A FF 
   378)     15265.8  Rx         0130  5  F7 FF FF FF FF 
   379)     15365.3  Rx         003C  8  7C A7 02 12 01 00 2A FF 
   380)     15366.0  Rx         0130  5  F7 FF FF FF FF 
   381)     15465.1  Rx         003C  8  20 A8 02 12 01 00 2A FF 
   382)     15465.7  Rx         0130  5  F7 FF FF FF FF 
   383)     15496.2  Rx         0799  7  1A 01 16 04 12 03 0A 
   384)     15565.5  Rx         003C  8  7D A9 02 12 01 00 2A FF 
   385)     15565.8  Rx         0130  5  F7 FF FF FF FF 
   386)     15665.2  Rx         003C  8  9A AA 02 12 01 00 2A FF 
   387)     15665.9  Rx         0130  5  F7 FF FF FF FF 
   388)     15726.1  Rx         07C1  8  0C 18 00 0C FF 00 01 00 
   389)     15765.2  Rx         003C  8  C7 AB 02 12 01 00 2A FF 
   390)     15765.6  Rx         0130  5  F7 FF FF FF FF 
   391)     15865.1  Rx         003C  8  49 AC 02 12 01 00 2A FF 
   392)     15865.6  Rx         0130  5  F7 FF FF FF FF 
   393)     15965.4  Rx         003C  8  14 AD 02 12 01 00 2A FF 
   394)     15965.9  Rx         0130  5  F7 FF FF FF FF 
   395)     15996.3  Rx         0799  7  1D 01 16 04 0F 03 0A 
   396)     16065.3  Rx         003C  8  F3 AE 02 12 01 00 2A FF 
   397)     16065.6  Rx         0130  5  F7 FF FF FF FF 
   398)     16165.3  Rx         003C  8  F2 A0 02 12 01 00 2A FF 
   399)     16165.6  Rx         0130  5  F7 FF FF FF FF 
   400)     16256.6  Rx         07DF  8  02 01 0C 00 00 00 00 00 
   401)     16265.1  Rx         003C  8  AF A1 02 12 01 00 2A FF 
   402)     16265.8  Rx         07E8  8  04 41 0C 0A 7A 00 00 00 
   403)     16266.0  Rx         0130  5  F7 FF FF FF FF 
   404)     16271.1  Rx         07E9  8  04 41 0C 0A 54 AA AA AA 
   405)     16281.9  Rx         07EF  8  04 41 0C 0A 50 FF FF FF 
   406)     16365.3  Rx         003C  8  48 A2 02 12 01 00 2A FF 
   407)     16365.6  Rx         0130  5  F7 FF FF FF FF 
   408)     16465.1  Rx         003C  8  15 A3 02 12 01 00 2A FF 
   409)     16465.6  Rx         0130  5  F7 FF FF FF FF 
   410)     16501.2  Rx         0799  7  1A 01 16 04 13 03 0A 
   411)     16565.3  Rx         003C  8  9B A4 02 12 01 00 2A FF 
   412)     16565.9  Rx         0130  5  F7 FF FF FF FF 
   413)     16665.1  Rx         003C  8  C6 A5 02 12 01 00 2A FF 
   414)     16665.7  Rx         0130  5  F7 FF FF FF FF 
   415)     16726.0  Rx         07C1  8  0C 18 00 0C FF 00 01 00 
   416)     16765.4  Rx         003C  8  21 A6 02 12 01 00 2A FF 
   417)     16765.6  Rx         0130  5  F7 FF FF FF FF 
   418)     16865.2  Rx         003C  8  7C A7 02 12 01 00 2A FF 
   419)     16865.9  Rx         0130  5  F7 FF FF FF FF 
   420)     16965.4  Rx         003C  8  20 A8 02 12 01 00 2A FF 
   421)     16965.6  Rx         0130  5  F7 FF FF FF FF 
   422)     17001.4  Rx         0799  7  1E 01 16 04 0F 03 0A 
   423)     17065.0  Rx         003C  8  7D A9 02 12 01 00 2A FF 
   424)     17065.6  Rx         0130  5  F7 FF FF FF FF 
   425)     17165.5  Rx         003C  8  9A AA 02 12 01 00 2A FF 
   426)     17165.8  Rx         0130  5  F7 FF FF FF FF 
   427)     17255.6  Rx         07DF  8  02 01 0D 00 00 00 00 00 
   428)     17265.3  Rx         003C  8  C7 AB 02 12 01 00 2A FF 
   429)     17265.6  Rx         0130  5  F7 FF FF FF FF 
   430)     17265.8  Rx         07E8  8  03 41 0D 00 00 00 00 00 
   431)     17271.0  Rx         07E9  8  03 41 0D 00 AA AA AA AA 
   432)     17276.9  Rx         07EF  8  03 41 0D 00 FF FF FF FF 
   433)     17365.0  Rx         003C  8  49 AC 02 12 01 00 2A FF 
   434)     17365.6  Rx         0130  5  F7 FF FF FF FF 
   435)     17465.3  Rx         003C  8  14 AD 02 12 01 00 2A FF 
   436)     17465.8  Rx         0130  5  F7 FF FF FF FF 
   437)     17502.4  Rx         0799  7  1A 01 16 04 12 03 0A 
   438)     17504.6  Rx         07DF  8  02 01 0C 00 00 00 00 00 
   439)     17516.0  Rx         07E8  8  04 41 0C 0A 64 00 00 00 
   440)     17523.0  Rx         07E9  8  04 41 0C 0A 68 AA AA AA 
   441)     17526.9  Rx         07EF  8  04 41 0C 0A 68 FF FF FF 
   442)     17565.3  Rx         003C  8  F3 AE 02 12 01 00 2A FF 
   443)     17565.6  Rx         0130  5  F7 FF FF FF FF 
   444)     17665.0  Rx         003C  8  F2 A0 02 12 01 00 2A FF 
   445)     17665.6  Rx         0130  5  F7 FF FF FF FF 
   446)     17726.0  Rx         07C1  8  0C 18 00 0C FF 00 01 00 
   447)     17765.2  Rx         003C  8  AF A1 02 12 01 00 2A FF 
   448)     17765.7  Rx         0130  5  F7 FF FF FF FF 
   449)     17865.0  Rx         003C  8  48 A2 02 12 01 00 2A FF 
   450)     17865.3  Rx         0130  5  F7 FF FF FF FF 
   451)     17965.4  Rx         003C  8  15 A3 02 12 01 00 2A FF 
   452)     17965.6  Rx         0130  5  F7 FF FF FF FF 
   453)     18012.0  Rx         0799  7  1D 01 16 04 0F 03 0A 
   454)     18065.3  Rx         003C  8  9B A4 02 12 01 00 2A FF 
   455)     18065.8  Rx         0130  5  F7 FF FF FF FF 
   456)     18165.3  Rx         003C  8  C6 A5 02 12 01 00 2A FF 
   457)     18165.6  Rx         0130  5  F7 FF FF FF FF 
   458)     18265.0  Rx         003C  8  21 A6 02 12 01 00 2A FF 
   459)     18265.6  Rx         0130  5  F7 FF FF FF FF 
   460)     18365.0  Rx         003C  8  7C A7 02 12 01 00 2A FF 
   461)     18365.9  Rx         0130  5  F7 FF FF FF FF 
   462)     18465.3  Rx         003C  8  20 A8 02 12 01 00 2A FF 
   463)     18465.6  Rx         0130  5  F7 FF FF FF FF 
   464)     18512.2  Rx         0799  7  1A 01 16 04 12 03 0A 
   465)     18565.0  Rx         003C  8  7D A9 02 12 01 00 2A FF 
   466)     18565.6  Rx         0130  5  F7 FF FF FF FF 
   467)     18665.3  Rx         003C  8  9A AA 02 12 01 00 2A FF 
   468)     18665.9  Rx         0130  5  F7 FF FF FF FF 
   469)     18726.0  Rx         07C1  8  0C 18 00 0C FF 00 01 00 
   470)     18754.5  Rx         07DF  8  02 01 0C 00 00 00 00 00 
   471)     18765.2  Rx         003C  8  C7 AB 02 12 01 00 2A FF 
   472)     18766.4  Rx         07E8  8  04 41 0C 0A 72 00 00 00 
   473)     18766.7  Rx         0130  5  F7 FF FF FF FF 
   474)     18771.2  Rx         07E9  8  04 41 0C 0A 58 AA AA AA 
   475)     18776.9  Rx         07EF  8  04 41 0C 0A 50 FF FF FF 
   476)     18865.1  Rx         003C  8  49 AC 02 12 01 00 2A FF 
   477)     18865.3  Rx         0130  5  F7 FF FF FF FF 
   478)     18965.3  Rx         003C  8  14 AD 02 12 01 00 2A FF 
   479)     18965.6  Rx         0130  5  F7 FF FF FF FF 
   480)     19012.3  Rx         0799  7  1D 01 17 04 0E 03 0A 
   481)     19065.0  Rx         003C  8  F3 AE 02 12 01 00 2A FF 
   482)     19065.4  Rx         0130  5  F7 FF FF FF FF 
   483)     19165.2  Rx         003C  8  F2 A0 02 12 01 00 2A FF 
   484)     19165.5  Rx         0130  5  F7 FF FF FF FF 
   485)     19265.1  Rx         003C  8  AF A1 02 12 01 00 2A FF 
   486)     19266.0  Rx         0130  5  F7 FF FF FF FF 
   487)     19365.1  Rx         003C  8  48 A2 02 12 01 00 2A FF 
   488)     19365.6  Rx         0130  5  F7 FF FF FF FF 
   489)     19465.0  Rx         003C  8  15 A3 02 12 01 00 2A FF 
   490)     19465.3  Rx         0130  5  F7 FF FF FF FF 
   491)     19504.5  Rx         07DF  8  02 01 0D 00 00 00 00 00 
   492)     19515.8  Rx         07E8  8  03 41 0D 00 00 00 00 00 
   493)     19522.9  Rx         07E9  8  03 41 0D 00 AA AA AA AA 
   494)     19526.3  Rx         0799  7  1A 01 16 04 13 03 0A 
   495)     19526.9  Rx         07EF  8  03 41 0D 00 FF FF FF FF 
   496)     19565.1  Rx         003C  8  9B A4 02 12 01 00 2A FF 
   497)     19565.7  Rx         0130  5  F7 FF FF FF FF 
   498)     19665.0  Rx         003C  8  C6 A5 02 12 01 00 2A FF 
   499)     19665.3  Rx         0130  5  F7 FF FF FF FF 
   500)     19727.1  Rx         07C1  8  0C 18 00 0C FF 00 01 00 
   501)     19765.0  Rx         003C  8  21 A6 02 12 01 00 2A FF 
   502)     19765.3  Rx         0130  5  F7 FF FF FF FF 
   503)     19865.1  Rx         003C  8  7C A7 02 12 01 00 2A FF 
   504)     19865.5  Rx         0130  5  F7 FF FF FF FF 
   505)     19965.0  Rx         003C  8  20 A8 02 12 01 00 2A FF 
   506)     19965.4  Rx         0130  5  F7 FF FF FF FF 
   507)     20003.5  Rx         07DF  8  02 01 0C 00 00 00 00 00 
   508)     20015.8  Rx         07E8  8  04 41 0C 0A 5C 00 00 00 
   509)     20022.0  Rx         07E9  8  04 41 0C 0A 5C AA AA AA 
   510)     20026.8  Rx         07EF  8  04 41 0C 0A 5C FF FF FF 
   511)     20028.3  Rx         0799  7  1E 01 17 04 0F 03 0A 
   512)     20065.0  Rx         003C  8  7D A9 02 12 01 00 2A FF 
   513)     20065.3  Rx         0130  5  F7 FF FF FF FF 
   514)     20165.0  Rx         003C  8  9A AA 02 12 01 00 2A FF 
   515)     20165.6  Rx         0130  5  F7 FF FF FF FF 
   516)     20265.0  Rx         003C  8  C7 AB 02 12 01 00 2A FF 
   517)     20265.3  Rx         0130  5  F7 FF FF FF FF 
   518)     20365.2  Rx         003C  8  49 AC 02 12 01 00 2A FF 
   519)     20365.4  Rx         0130  5  F7 FF FF FF FF 
   520)     20464.9  Rx         003C  8  14 AD 02 12 01 00 2A FF 
   521)     20465.5  Rx         0130  5  F7 FF FF FF FF 
   522)     20551.6  Rx         0799  7  1A 01 16 04 13 03 0A 
   523)     20565.0  Rx         003C  8  F3 AE 02 12 01 00 2A FF 
   524)     20565.3  Rx         0130  5  F7 FF FF FF FF 
   525)     20665.0  Rx         003C  8  F2 A0 02 12 01 00 2A FF 
   526)     20665.3  Rx         0130  5  F7 FF FF FF FF 
   527)     20727.1  Rx         07C1  8  0C 18 00 0C FF 00 01 00 
   528)     20765.0  Rx         003C  8  AF A1 02 12 01 00 2A FF 
   529)     20765.6  Rx         0130  5  F7 FF FF FF FF 
   530)     20864.9  Rx         003C  8  48 A2 02 12 01 00 2A FF 
   531)     20865.3  Rx         0130  5  F7 FF FF FF FF 
   532)     20965.0  Rx         003C  8  15 A3 02 12 01 00 2A FF 
   533)     20965.3  Rx         0130  5  F7 FF FF FF FF 
   534)     21056.3  Rx         0799  7  1F 01 16 04 0E 03 0A 
   535)     21065.0  Rx         003C  8  9B A4 02 12 01 00 2A FF 
   536)     21065.5  Rx         0130  5  F7 FF FF FF FF 
   537)     21165.1  Rx         003C  8  C6 A5 02 12 01 00 2A FF 
   538)     21165.4  Rx         0130  5  F7 FF FF FF FF 
   539)     21253.6  Rx         07DF  8  02 01 0C 00 00 00 00 00 
   540)     21265.0  Rx         003C  8  21 A6 02 12 01 00 2A FF 
   541)     21265.3  Rx         0130  5  F7 FF FF FF FF 
   542)     21265.8  Rx         07E8  8  04 41 0C 0A 38 00 00 00 
   543)     21270.8  Rx         07E9  8  04 41 0C 0A 3C AA AA AA 
   544)     21276.9  Rx         07EF  8  04 41 0C 0A 3C FF FF FF 
   545)     21365.0  Rx         003C  8  7C A7 02 12 01 00 2A FF 
   546)     21365.6  Rx         0130  5  F7 FF FF FF FF 
   547)     21465.0  Rx         003C  8  20 A8 02 12 01 00 2A FF 
   548)     21465.3  Rx         0130  5  F7 FF FF FF FF 
   549)     21565.1  Rx         003C  8  7D A9 02 12 01 00 2A FF 
   550)     21565.4  Rx         0130  5  F7 FF FF FF FF 
   551)     21566.4  Rx         0799  7  19 01 16 04 13 03 0A 
   552)     21665.0  Rx         003C  8  9A AA 02 12 01 00 2A FF 
   553)     21665.6  Rx         0130  5  F7 FF FF FF FF 
   554)     21727.0  Rx         07C1  8  0C 18 00 0C FF 00 01 00 
   555)     21753.5  Rx         07DF  8  02 01 0D 00 00 00 00 00 
   556)     21765.0  Rx         003C  8  C7 AB 02 12 01 00 2A FF 
   557)     21765.3  Rx         0130  5  F7 FF FF FF FF 
   558)     21765.9  Rx         07E8  8  03 41 0D 00 00 00 00 00 
   559)     21770.8  Rx         07E9  8  03 41 0D 00 AA AA AA AA 
   560)     21777.0  Rx         07EF  8  03 41 0D 00 FF FF FF FF 
   561)     21865.0  Rx         003C  8  49 AC 02 12 01 00 2A FF 
   562)     21865.3  Rx         0130  5  F7 FF FF FF FF 
   563)     21965.0  Rx         003C  8  14 AD 02 12 01 00 2A FF 
   564)     21965.6  Rx         0130  5  F7 FF FF FF FF 
   565)     22065.0  Rx         003C  8  F3 AE 02 12 01 00 2A FF 
   566)     22065.3  Rx         0130  5  F7 FF FF FF FF 
   567)     22067.3  Rx         0799  7  1E 01 16 04 0E 03 0A 
   568)     22165.1  Rx         003C  8  F2 A0 02 12 01 00 2A FF 
   569)     22165.4  Rx         0130  5  F7 FF FF FF FF 
   570)     22265.0  Rx         003C  8  AF A1 02 12 01 00 2A FF 
   571)     22265.6  Rx         0130  5  F7 FF FF FF FF 
   572)     22365.1  Rx         003C  8  48 A2 02 12 01 00 2A FF 
   573)     22365.4  Rx         0130  5  F7 FF FF FF FF 
   574)     22465.0  Rx         003C  8  15 A3 02 12 01 00 2A FF 
   575)     22465.4  Rx         0130  5  F7 FF FF FF FF 
   576)     22502.6  Rx         07DF  8  02 01 0C 00 00 00 00 00 
   577)     22506.3  Rx         07E8  8  04 41 0C 0A 58 00 00 00 
   578)     22524.5  Rx         07E9  8  04 41 0C 0A 60 AA AA AA 
   579)     22527.1  Rx         07EF  8  04 41 0C 0A 60 FF FF FF 
   580)     22565.2  Rx         003C  8  9B A4 02 12 01 00 2A FF 
   581)     22565.6  Rx         0130  5  F7 FF FF FF FF 
   582)     22570.5  Rx         0799  7  1A 01 16 04 12 03 0A 
   583)     22665.0  Rx         003C  8  C6 A5 02 12 01 00 2A FF 
   584)     22665.3  Rx         0130  5  F7 FF FF FF FF 
   585)     22727.1  Rx         07C1  8  0C 18 00 0C FF 00 01 00 
   586)     22765.2  Rx         003C  8  21 A6 02 12 01 00 2A FF 
   587)     22765.4  Rx         0130  5  F7 FF FF FF FF 
   588)     22865.0  Rx         003C  8  7C A7 02 12 01 00 2A FF 
   589)     22865.6  Rx         0130  5  F7 FF FF FF FF 
   590)     22965.1  Rx         003C  8  20 A8 02 12 01 00 2A FF 
   591)     22965.4  Rx         0130  5  F7 FF FF FF FF 
   592)     23065.0  Rx         003C  8  7D A9 02 12 01 00 2A FF 
   593)     23065.3  Rx         0130  5  F7 FF FF FF FF 
   594)     23073.1  Rx         0799  7  1E 01 16 04 0F 03 0A 
   595)     23165.1  Rx         003C  8  9A AA 02 12 01 00 2A FF 
   596)     23165.9  Rx         0130  5  F7 FF FF FF FF 
   597)     23265.0  Rx         003C  8  C7 AB 02 12 01 00 2A FF 
   598)     23265.3  Rx         0130  5  F7 FF FF FF FF 
   599)     23365.1  Rx         003C  8  49 AC 02 12 01 00 2A FF 
   600)     23365.4  Rx         0130  5  F7 FF FF FF FF 
   601)     23465.1  Rx         003C  8  14 AD 02 12 01 00 2A FF 
   602)     23465.6  Rx         0130  5  F7 FF FF FF FF 
   603)     23565.0  Rx         003C  8  F3 AE 02 12 01 00 2A FF 
   604)     23565.4  Rx         0130  5  F7 FF FF FF FF 
   605)     23575.3  Rx         0799  7  1A 01 17 04 12 03 0A 
   606)     23665.1  Rx         003C  8  F2 A0 02 12 01 00 2A FF 
   607)     23665.4  Rx         0130  5  F7 FF FF FF FF 
   608)     23727.1  Rx         07C1  8  0C 18 00 0C FF 00 01 00 
   609)     23752.6  Rx         07DF  8  02 01 0C 00 00 00 00 00 
   610)     23755.8  Rx         07E8  8  04 41 0C 0A 78 00 00 00 
   611)     23765.1  Rx         003C  8  AF A1 02 12 01 00 2A FF 
   612)     23765.7  Rx         0130  5  F7 FF FF FF FF 
   613)     23770.8  Rx         07E9  8  04 41 0C 0A 68 AA AA AA 
   614)     23777.0  Rx         07EF  8  04 41 0C 0A 68 FF FF FF 
   615)     23865.1  Rx         003C  8  48 A2 02 12 01 00 2A FF 
   616)     23865.4  Rx         0130  5  F7 FF FF FF FF 
   617)     23965.0  Rx         003C  8  15 A3 02 12 01 00 2A FF 
   618)     23965.4  Rx         0130  5  F7 FF FF FF FF 
   619)     24002.6  Rx         07DF  8  02 01 0D 00 00 00 00 00 
   620)     24005.8  Rx         07E8  8  03 41 0D 00 00 00 00 00 
   621)     24022.2  Rx         07E9  8  03 41 0D 00 AA AA AA AA 
   622)     24027.1  Rx         07EF  8  03 41 0D 00 FF FF FF FF 
   623)     24065.0  Rx         003C  8  9B A4 02 12 01 00 2A FF 
   624)     24065.6  Rx         0130  5  F7 FF FF FF FF 
   625)     24075.6  Rx         0799  7  1E 01 17 04 0E 03 0A 
   626)     24165.1  Rx         003C  8  C6 A5 02 12 01 00 2A FF 
   627)     24165.4  Rx         0130  5  F7 FF FF FF FF 
   628)     24265.0  Rx         003C  8  21 A6 02 12 01 00 2A FF 
   629)     24265.4  Rx         0130  5  F7 FF FF FF FF 
   630)     24365.3  Rx         003C  8  7C A7 02 12 01 00 2A FF 
   631)     24365.6  Rx         0130  5  F7 FF FF FF FF 
   632)     24465.0  Rx         003C  8  20 A8 02 12 01 00 2A FF 
   633)     24465.3  Rx         0130  5  F7 FF FF FF FF 
   634)     24565.0  Rx         003C  8  7D A9 02 12 01 00 2A FF 
   635)     24565.3  Rx         0130  5  F7 FF FF FF FF 
   636)     24581.6  Rx         0799  7  19 01 16 04 13 03 0A 
   637)     24665.0  Rx         003C  8  9A AA 02 12 01 00 2A FF 
   638)     24665.5  Rx         0130  5  F7 FF FF FF FF 
   639)     24727.1  Rx         07C1  8  0C 18 00 0C FF 00 01 00 
   640)     24765.0  Rx         003C  8  C7 AB 02 12 01 00 2A FF 
   641)     24765.3  Rx         0130  5  F7 FF FF FF FF 
   642)     24864.9  Rx         003C  8  49 AC 02 12 01 00 2A FF 
   643)     24865.2  Rx         0130  5  F7 FF FF FF FF 
   644)     24965.0  Rx         003C  8  14 AD 02 12 01 00 2A FF 
   645)     24965.5  Rx         0130  5  F7 FF FF FF FF 
   646)     25001.5  Rx         07DF  8  02 01 0C 00 00 00 00 00 
   647)     25006.0  Rx         07E8  8  04 41 0C 0A 58 00 00 00 
   648)     25022.2  Rx         07E9  8  04 41 0C 0A 58 AA AA AA 
   649)     25026.8  Rx         07EF  8  04 41 0C 0A 58 FF FF FF 
   650)     25065.0  Rx         003C  8  F3 AE 02 12 01 00 2A FF 
   651)     25065.3  Rx         0130  5  F7 FF FF FF FF 
   652)     25095.4  Rx         0799  7  1F 01 17 04 0E 03 0A 
   653)     25165.0  Rx         003C  8  F2 A0 02 12 01 00 2A FF 
   654)     25165.3  Rx         0130  5  F7 FF FF FF FF 
   655)     25264.9  Rx         003C  8  AF A1 02 12 01 00 2A FF 
   656)     25265.5  Rx         0130  5  F7 FF FF FF FF 
   657)     25364.9  Rx         003C  8  48 A2 02 12 01 00 2A FF 
   658)     25365.3  Rx         0130  5  F7 FF FF FF FF 
   659)     25464.9  Rx         003C  8  15 A3 02 12 01 00 2A FF 
   660)     25465.2  Rx         0130  5  F7 FF FF FF FF 
   661)     25565.0  Rx         003C  8  9B A4 02 12 01 00 2A FF 
   662)     25565.5  Rx         0130  5  F7 FF FF FF FF 
   663)     25601.7  Rx         0799  7  1A 01 16 04 12 03 0A 
   664)     25664.9  Rx         003C  8  C6 A5 02 12 01 00 2A FF 
   665)     25665.3  Rx         0130  5  F7 FF FF FF FF 
   666)     25727.0  Rx         07C1  8  0C 18 00 0C FF 00 01 00 
   667)     25764.9  Rx         003C  8  21 A6 02 12 01 00 2A FF 
   668)     25765.2  Rx         0130  5  F7 FF FF FF FF 
   669)     25865.0  Rx         003C  8  7C A7 02 12 01 00 2A FF 
   670)     25865.5  Rx         0130  5  F7 FF FF FF FF 
   671)     25965.0  Rx         003C  8  20 A8 02 12 01 00 2A FF 
   672)     25965.3  Rx         0130  5  F7 FF FF FF FF 
   673)     26064.9  Rx         003C  8  7D A9 02 12 01 00 2A FF 
   674)     26065.2  Rx         0130  5  F7 FF FF FF FF 
   675)     26110.3  Rx         0799  7  1F 01 16 04 0E 03 0A 
   676)     26165.0  Rx         003C  8  9A AA 02 12 01 00 2A FF 
   677)     26165.5  Rx         0130  5  F7 FF FF FF FF 
   678)     26265.0  Rx         003C  8  C7 AB 02 12 01 00 2A FF 
   679)     26265.4  Rx         0130  5  F7 FF FF FF FF 
   680)     26266.5  Rx         07DF  8  02 01 0D 00 00 00 00 00 
   681)     26275.8  Rx         07E8  8  03 41 0D 00 00 00 00 00 
   682)     26283.4  Rx         07E9  8  03 41 0D 00 AA AA AA AA 
   683)     26286.9  Rx         07EF  8  03 41 0D 00 FF FF FF FF 
   684)     26365.0  Rx         003C  8  49 AC 02 12 01 00 2A FF 
   685)     26365.3  Rx         0130  5  F7 FF FF FF FF 
   686)     26464.9  Rx         003C  8  14 AD 02 12 01 00 2A FF 
   687)     26465.5  Rx         0130  5  F7 FF FF FF FF 
   688)     26515.5  Rx         07DF  8  02 01 0C 00 00 00 00 00 
   689)     26525.7  Rx         07E8  8  04 41 0C 0A 50 00 00 00 
   690)     26531.3  Rx         07E9  8  04 41 0C 0A 4C AA AA AA 
   691)     26536.9  Rx         07EF  8  04 41 0C 0A 4C FF FF FF 
   692)     26565.0  Rx         003C  8  F3 AE 02 12 01 00 2A FF 
   693)     26565.3  Rx         0130  5  F7 FF FF FF FF 
   694)     26625.6  Rx         0799  7  1A 01 17 04 12 03 0A 
   695)     26664.9  Rx         003C  8  F2 A0 02 12 01 00 2A FF 
   696)     26665.2  Rx         0130  5  F7 FF FF FF FF 
   697)     26727.0  Rx         07C1  8  0C 18 00 0C FF 00 01 00 
   698)     26765.0  Rx         003C  8  AF A1 02 12 01 00 2A FF 
   699)     26765.4  Rx         07DF  8  02 01 1F 00 00 00 00 00 
   700)     26765.6  Rx         0130  5  F7 FF FF FF FF 
   701)     26775.7  Rx         07E8  8  04 41 1F 01 1C 00 00 00 
   702)     26864.9  Rx         003C  8  48 A2 02 12 01 00 2A FF 
   703)     26865.3  Rx         0130  5  F7 FF FF FF FF 
   704)     26965.1  Rx         003C  8  15 A3 02 12 01 00 2A FF 
   705)     26965.3  Rx         0130  5  F7 FF FF FF FF 
   706)     27065.0  Rx         003C  8  9B A4 02 12 01 00 2A FF 
   707)     27065.5  Rx         0130  5  F7 FF FF FF FF 
   708)     27126.3  Rx         0799  7  1F 01 16 04 0E 03 0A 
   709)     27165.1  Rx         003C  8  C6 A5 02 12 01 00 2A FF 
   710)     27165.3  Rx         0130  5  F7 FF FF FF FF 
   711)     27265.0  Rx         003C  8  21 A6 02 12 01 00 2A FF 
   712)     27265.3  Rx         0130  5  F7 FF FF FF FF 
   713)     27365.0  Rx         003C  8  7C A7 02 12 01 00 2A FF 
   714)     27365.5  Rx         0130  5  F7 FF FF FF FF 
   715)     27465.0  Rx         003C  8  20 A8 02 12 01 00 2A FF 
   716)     27465.3  Rx         0130  5  F7 FF FF FF FF 
   717)     27565.0  Rx         003C  8  7D A9 02 12 01 00 2A FF 
   718)     27565.3  Rx         0130  5  F7 FF FF FF FF 
   719)     27630.6  Rx         0799  7  1B 01 16 04 12 03 0A 
   720)     27665.0  Rx         003C  8  9A AA 02 12 01 00 2A FF 
   721)     27665.5  Rx         0130  5  F7 FF FF FF FF 
   722)     27727.0  Rx         07C1  8  0C 18 00 0C FF 00 01 00 
   723)     27765.0  Rx         003C  8  C7 AB 02 12 01 00 2A FF 
   724)     27765.3  Rx         0130  5  F7 FF FF FF FF 
   725)     27765.5  Rx         07DF  8  02 01 0C 00 00 00 00 00 
   726)     27775.8  Rx         07E8  8  04 41 0C 0A 3C 00 00 00 
   727)     27782.4  Rx         07E9  8  04 41 0C 0A 70 AA AA AA 
   728)     27786.9  Rx         07EF  8  04 41 0C 0A 70 FF FF FF 
   729)     27865.0  Rx         003C  8  49 AC 02 12 01 00 2A FF 
   730)     27865.3  Rx         0130  5  F7 FF FF FF FF 
   731)     27965.0  Rx         003C  8  14 AD 02 12 01 00 2A FF 
   732)     27965.5  Rx         0130  5  F7 FF FF FF FF 
   733)     28065.2  Rx         003C  8  F3 AE 02 12 01 00 2A FF 
   734)     28065.3  Rx         0130  5  F7 FF FF FF FF 
   735)     28133.7  Rx         0799  7  1D 01 16 04 0F 03 0A 
   736)     28165.0  Rx         003C  8  F2 A0 02 12 01 00 2A FF 
   737)     28165.3  Rx         0130  5  F7 FF FF FF FF 
   738)     28265.0  Rx         003C  8  AF A1 02 12 01 00 2A FF 
   739)     28265.6  Rx         0130  5  F7 FF FF FF FF 
   740)     28365.1  Rx         003C  8  48 A2 02 12 01 00 2A FF 
   741)     28365.3  Rx         0130  5  F7 FF FF FF FF 
   742)     28465.0  Rx         003C  8  15 A3 02 12 01 00 2A FF 
   743)     28465.3  Rx         0130  5  F7 FF FF FF FF 
   744)     28515.5  Rx         07DF  8  02 01 0D 00 00 00 00 00 
   745)     28525.8  Rx         07E8  8  03 41 0D 00 00 00 00 00 
   746)     28531.6  Rx         07E9  8  03 41 0D 00 AA AA AA AA 
   747)     28537.0  Rx         07EF  8  03 41 0D 00 FF FF FF FF 
   748)     28565.1  Rx         003C  8  9B A4 02 12 01 00 2A FF 
   749)     28565.5  Rx         0130  5  F7 FF FF FF FF 
   750)     28635.3  Rx         0799  7  1A 01 17 04 12 03 0A 
   751)     28665.0  Rx         003C  8  C6 A5 02 12 01 00 2A FF 
   752)     28665.3  Rx         0130  5  F7 FF FF FF FF 
   753)     28727.2  Rx         07C1  8  0C 18 00 0C FF 00 01 00 
   754)     28765.0  Rx         003C  8  21 A6 02 12 01 00 2A FF 
   755)     28766.0  Rx         0130  5  F7 FF FF FF FF 
   756)     28865.0  Rx         003C  8  7C A7 02 12 01 00 2A FF 
   757)     28865.6  Rx         0130  5  F7 FF FF FF FF 
   758)     28965.0  Rx         003C  8  20 A8 02 12 01 00 2A FF 
   759)     28965.2  Rx         0130  5  F7 FF FF FF FF 
   760)     29014.5  Rx         07DF  8  02 01 0C 00 00 00 00 00 
   761)     29025.8  Rx         07E8  8  04 41 0C 0A 56 00 00 00 
   762)     29031.1  Rx         07E9  8  04 41 0C 0A 5C AA AA AA 
   763)     29036.9  Rx         07EF  8  04 41 0C 0A 5C FF FF FF 
   764)     29065.0  Rx         003C  8  7D A9 02 12 01 00 2A FF 
   765)     29065.2  Rx         0130  5  F7 FF FF FF FF 
   766)     29135.3  Rx         0799  7  1E 01 16 04 0F 03 0A 
   767)     29165.1  Rx         003C  8  9A AA 02 12 01 00 2A FF 
   768)     29165.6  Rx         0130  5  F7 FF FF FF FF 
   769)     29265.0  Rx         003C  8  C7 AB 02 12 01 00 2A FF 
   770)     29265.3  Rx         0130  5  F7 FF FF FF FF 
   771)     29365.0  Rx         003C  8  49 AC 02 12 01 00 2A FF 
   772)     29365.3  Rx         0130  5  F7 FF FF FF FF 
   773)     29465.0  Rx         003C  8  14 AD 02 12 01 00 2A FF 
   774)     29465.5  Rx         0130  5  F7 FF FF FF FF 
   775)     29565.0  Rx         003C  8  F3 AE 02 12 01 00 2A FF 
   776)     29565.3  Rx         0130  5  F7 FF FF FF FF 
   777)     29641.2  Rx         0799  7  1A 01 17 04 12 03 0A 
   778)     29665.0  Rx         003C  8  F2 A0 02 12 01 00 2A FF 
   779)     29665.2  Rx         0130  5  F7 FF FF FF FF 
   780)     29729.6  Rx         07C1  8  0C 18 00 0C FF 00 01 00 
   781)     29764.9  Rx         003C  8  AF A1 02 12 01 00 2A FF 
   782)     29765.5  Rx         0130  5  F7 FF FF FF FF 
   783)     29865.0  Rx         003C  8  48 A2 02 12 01 00 2A FF 
   784)     29865.3  Rx         0130  5  F7 FF FF FF FF 
   785)     29965.0  Rx         003C  8  15 A3 02 12 01 00 2A FF 
   786)     29965.3  Rx         0130  5  F7 FF FF FF FF 
   787)     30064.9  Rx         003C  8  9B A4 02 12 01 00 2A FF 
   788)     30065.5  Rx         0130  5  F7 FF FF FF FF 
   789)     30143.7  Rx         0799  7  1F 01 16 04 0F 03 0A 
   790)     30165.0  Rx         003C  8  C6 A5 02 12 01 00 2A FF 
   791)     30165.2  Rx         0130  5  F7 FF FF FF FF 
   792)     30264.5  Rx         07DF  8  02 01 0C 00 00 00 00 00 
   793)     30265.0  Rx         003C  8  21 A6 02 12 01 00 2A FF 
   794)     30265.3  Rx         0130  5  F7 FF FF FF FF 
   795)     30276.2  Rx         07E8  8  04 41 0C 0A 62 00 00 00 
   796)     30282.5  Rx         07E9  8  04 41 0C 0A 64 AA AA AA 
   797)     30286.9  Rx         07EF  8  04 41 0C 0A 64 FF FF FF 
   798)     30365.3  Rx         003C  8  7C A7 02 12 01 00 2A FF 
   799)     30365.7  Rx         0130  5  F7 FF FF FF FF 
   800)     30465.0  Rx         003C  8  20 A8 02 12 01 00 2A FF 
   801)     30465.2  Rx         0130  5  F7 FF FF FF FF 
   802)     30565.0  Rx         003C  8  7D A9 02 12 01 00 2A FF 
   803)     30565.3  Rx         0130  5  F7 FF FF FF FF 
   804)     30645.7  Rx         0799  7  1A 01 16 04 12 03 0A 
   805)     30665.3  Rx         003C  8  9A AA 02 12 01 00 2A FF 
   806)     30665.5  Rx         0130  5  F7 FF FF FF FF 
   807)     30731.0  Rx         07C1  8  0C 18 00 0C FF 00 01 00 
   808)     30764.4  Rx         07DF  8  02 01 0D 00 00 00 00 00 
   809)     30765.2  Rx         003C  8  C7 AB 02 12 01 00 2A FF 
   810)     30765.3  Rx         0130  5  F7 FF FF FF FF 
   811)     30775.8  Rx         07E8  8  03 41 0D 00 00 00 00 00 
   812)     30782.2  Rx         07E9  8  03 41 0D 00 AA AA AA AA 
   813)     30786.9  Rx         07EF  8  03 41 0D 00 FF FF FF FF 
   814)     30865.0  Rx         003C  8  49 AC 02 12 01 00 2A FF 
   815)     30865.2  Rx         0130  5  F7 FF FF FF FF 
   816)     30965.0  Rx         003C  8  14 AD 02 12 01 00 2A FF 
   817)     30965.5  Rx         0130  5  F7 FF FF FF FF 
   818)     31065.0  Rx         003C  8  F3 AE 02 12 01 00 2A FF 
   819)     31065.3  Rx         0130  5  F7 FF FF FF FF 
   820)     31148.6  Rx         0799  7  1F 01 16 04 0F 03 0A 
   821)     31165.1  Rx         003C  8  F2 A0 02 12 01 00 2A FF 
   822)     31165.3  Rx         0130  5  F7 FF FF FF FF 
   823)     31265.2  Rx         003C  8  AF A1 02 12 01 00 2A FF 
   824)     31265.5  Rx         0130  5  F7 FF FF FF FF 
   825)     31365.0  Rx         003C  8  48 A2 02 12 01 00 2A FF 
   826)     31365.2  Rx         0130  5  F7 FF FF FF FF 
   827)     31464.9  Rx         003C  8  15 A3 02 12 01 00 2A FF 
   828)     31465.3  Rx         0130  5  F7 FF FF FF FF 
   829)     31513.5  Rx         07DF  8  02 01 0C 00 00 00 00 00 
   830)     31515.8  Rx         07E8  8  04 41 0C 0A 2E 00 00 00 
   831)     31531.3  Rx         07E9  8  04 41 0C 0A 34 AA AA AA 
   832)     31536.9  Rx         07EF  8  04 41 0C 0A 34 FF FF FF 
   833)     31565.4  Rx         003C  8  9B A4 02 12 01 00 2A FF 
   834)     31565.6  Rx         0130  5  F7 FF FF FF FF 
   835)     31651.6  Rx         0799  7  1B 01 17 04 11 03 0A 
   836)     31664.9  Rx         003C  8  C6 A5 02 12 01 00 2A FF 
   837)     31665.2  Rx         0130  5  F7 FF FF FF FF 
   838)     31731.1  Rx         07C1  8  0C 18 00 0C FF 00 01 00 
   839)     31764.9  Rx         003C  8  21 A6 02 12 01 00 2A FF 
   840)     31765.2  Rx         0130  5  F7 FF FF FF FF 
   841)     31865.0  Rx         003C  8  7C A7 02 12 01 00 2A FF 
   842)     31865.6  Rx         0130  5  F7 FF FF FF FF 
   843)     31965.0  Rx         003C  8  20 A8 02 12 01 00 2A FF 
   844)     31965.3  Rx         0130  5  F7 FF FF FF FF 
   845)     32064.9  Rx         003C  8  7D A9 02 12 01 00 2A FF 
   846)     32065.2  Rx         0130  5  F7 FF FF FF FF 
   847)     32153.6  Rx         0799  7  1F 01 16 04 0E 03 0A 
   848)     32164.9  Rx         003C  8  9A AA 02 12 01 00 2A FF 
   849)     32165.5  Rx         0130  5  F7 FF FF FF FF 
   850)     32265.1  Rx         003C  8  C7 AB 02 12 01 00 2A FF 
   851)     32265.3  Rx         0130  5  F7 FF FF FF FF 
   852)     32365.2  Rx         003C  8  49 AC 02 12 01 00 2A FF 
   853)     32365.4  Rx         0130  5  F7 FF FF FF FF 
   854)     32465.0  Rx         003C  8  14 AD 02 12 01 00 2A FF 
   855)     32465.5  Rx         0130  5  F7 FF FF FF FF 
   856)     32564.9  Rx         003C  8  F3 AE 02 12 01 00 2A FF 
   857)     32565.3  Rx         0130  5  F7 FF FF FF FF 
   858)     32655.6  Rx         0799  7  1A 01 17 04 13 03 0A 
   859)     32664.9  Rx         003C  8  F2 A0 02 12 01 00 2A FF 
   860)     32665.2  Rx         0130  5  F7 FF FF FF FF 
   861)     32732.1  Rx         07C1  8  0C 18 00 0C FF 00 01 00 
   862)     32763.5  Rx         07DF  8  02 01 0C 00 00 00 00 00 
   863)     32765.2  Rx         003C  8  AF A1 02 12 01 00 2A FF 
   864)     32765.8  Rx         07E8  8  04 41 0C 0A 3E 00 00 00 
   865)     32766.0  Rx         0130  5  F7 FF FF FF FF 
   866)     32782.4  Rx         07E9  8  04 41 0C 0A 60 AA AA AA 
   867)     32786.9  Rx         07EF  8  04 41 0C 0A 60 FF FF FF 
   868)     32865.0  Rx         003C  8  48 A2 02 12 01 00 2A FF 
   869)     32865.2  Rx         0130  5  F7 FF FF FF FF 
   870)     32964.9  Rx         003C  8  15 A3 02 12 01 00 2A FF 
   871)     32965.2  Rx         0130  5  F7 FF FF FF FF 
   872)     33013.5  Rx         07DF  8  02 01 0D 00 00 00 00 00 
   873)     33015.8  Rx         07E8  8  03 41 0D 00 00 00 00 00 
   874)     33031.1  Rx         07E9  8  03 41 0D 00 AA AA AA AA 
   875)     33036.9  Rx         07EF  8  03 41 0D 00 FF FF FF FF 
   876)     33064.8  Rx         003C  8  9B A4 02 12 01 00 2A FF 
   877)     33065.4  Rx         0130  5  F7 FF FF FF FF 
   878)     33161.3  Rx         0799  7  1F 01 16 04 0F 03 09 
   879)     33165.1  Rx         003C  8  C6 A5 02 12 01 00 2A FF 
   880)     33165.3  Rx         0130  5  F7 FF FF FF FF 
   881)     33264.8  Rx         003C  8  21 A6 02 12 01 00 2A FF 
   882)     33265.2  Rx         0130  5  F7 FF FF FF FF 
   883)     33364.9  Rx         003C  8  7C A7 02 12 01 00 2A FF 
   884)     33365.3  Rx         0130  5  F7 FF FF FF FF 
   885)     33465.0  Rx         003C  8  20 A8 02 12 01 00 2A FF 
   886)     33465.3  Rx         0130  5  F7 FF FF FF FF 
   887)     33564.8  Rx         003C  8  7D A9 02 12 01 00 2A FF 
   888)     33565.3  Rx         0130  5  F7 FF FF FF FF 
   889)     33661.3  Rx         0799  7  1B 01 17 04 12 03 0A 
   890)     33664.8  Rx         003C  8  9A AA 02 12 01 00 2A FF 
   891)     33665.3  Rx         0130  5  F7 FF FF FF FF 
   892)     33734.6  Rx         07C1  8  0C 18 00 0C FF 00 01 00 
   893)     33766.3  Rx         003C  8  C7 AB 02 12 01 00 2A FF 
   894)     33766.5  Rx         0130  5  F7 FF FF FF FF 
   895)     33864.8  Rx         003C  8  49 AC 02 12 01 00 2A FF 
   896)     33865.2  Rx         0130  5  F7 FF FF FF FF 
   897)     33964.9  Rx         003C  8  14 AD 02 12 01 00 2A FF 
   898)     33965.6  Rx         0130  5  F7 FF FF FF FF 
   899)     34012.4  Rx         07DF  8  02 01 0C 00 00 00 00 00 
   900)     34025.7  Rx         07E8  8  04 41 0C 0A 70 00 00 00 
   901)     34031.0  Rx         07E9  8  04 41 0C 0A 64 AA AA AA 
   902)     34036.8  Rx         07EF  8  04 41 0C 0A 70 FF FF FF 
   903)     34064.8  Rx         003C  8  F3 AE 02 12 01 00 2A FF 
   904)     34065.1  Rx         0130  5  F7 FF FF FF FF 
   905)     34163.5  Rx         0799  7  1E 01 16 04 0F 03 0A 
   906)     34164.9  Rx         003C  8  F2 A0 02 12 01 00 2A FF 
   907)     34165.3  Rx         0130  5  F7 FF FF FF FF 
   908)     34265.0  Rx         003C  8  AF A1 02 12 01 00 2A FF 
   909)     34265.4  Rx         0130  5  F7 FF FF FF FF 
   910)     34364.9  Rx         003C  8  48 A2 02 12 01 00 2A FF 
   911)     34365.3  Rx         0130  5  F7 FF FF FF FF 
   912)     34464.8  Rx         003C  8  15 A3 02 12 01 00 2A FF 
   913)     34465.2  Rx         0130  5  F7 FF FF FF FF 
   914)     34564.9  Rx         003C  8  9B A4 02 12 01 00 2A FF 
   915)     34565.4  Rx         0130  5  F7 FF FF FF FF 
   916)     34664.8  Rx         003C  8  C6 A5 02 12 01 00 2A FF 
   917)     34665.2  Rx         0130  5  F7 FF FF FF FF 
   918)     34665.9  Rx         0799  7  1C 01 17 04 11 03 0A 
   919)     34734.6  Rx         07C1  8  0C 18 00 0C FF 00 01 00 
   920)     34764.8  Rx         003C  8  21 A6 02 12 01 00 2A FF 
   921)     34765.9  Rx         0130  5  F7 FF FF FF FF 
   922)     34864.8  Rx         003C  8  7C A7 02 12 01 00 2A FF 
   923)     34865.4  Rx         0130  5  F7 FF FF FF FF 
   924)     34964.8  Rx         003C  8  20 A8 02 12 01 00 2A FF 
   925)     34965.3  Rx         0130  5  F7 FF FF FF FF 
   926)     35064.8  Rx         003C  8  7D A9 02 12 01 00 2A FF 
   927)     35065.2  Rx         0130  5  F7 FF FF FF FF 
   928)     35164.8  Rx         003C  8  9A AA 02 12 01 00 2A FF 
   929)     35165.4  Rx         0130  5  F7 FF FF FF FF 
   930)     35167.9  Rx         0799  7  1D 01 16 04 0F 03 0A 
   931)     35262.4  Rx         07DF  8  02 01 0D 00 00 00 00 00 
   932)     35264.8  Rx         003C  8  C7 AB 02 12 01 00 2A FF 
   933)     35265.2  Rx         0130  5  F7 FF FF FF FF 
   934)     35265.7  Rx         07E8  8  03 41 0D 00 00 00 00 00 
   935)     35282.2  Rx         07E9  8  03 41 0D 00 AA AA AA AA 
   936)     35286.8  Rx         07EF  8  03 41 0D 00 FF FF FF FF 
   937)     35364.8  Rx         003C  8  49 AC 02 12 01 00 2A FF 
   938)     35365.3  Rx         0130  5  F7 FF FF FF FF 
   939)     35464.8  Rx         003C  8  14 AD 02 12 01 00 2A FF 
   940)     35465.4  Rx         0130  5  F7 FF FF FF FF 
   941)     35511.4  Rx         07DF  8  02 01 0C 00 00 00 00 00 
   942)     35515.7  Rx         07E8  8  04 41 0C 0A 40 00 00 00 
   943)     35531.0  Rx         07E9  8  04 41 0C 0A 34 AA AA AA 
   944)     35532.0  Rx         07EF  8  04 41 0C 0A 34 FF FF FF 
   945)     35564.8  Rx         003C  8  F3 AE 02 12 01 00 2A FF 
   946)     35565.4  Rx         0130  5  F7 FF FF FF FF 
   947)     35664.8  Rx         003C  8  F2 A0 02 12 01 00 2A FF 
   948)     35665.2  Rx         0130  5  F7 FF FF FF FF 
   949)     35672.9  Rx         0799  7  1C 01 17 04 11 03 0A 
   950)     35734.5  Rx         07C1  8  0C 18 00 0C FF 00 01 00 
   951)     35764.8  Rx         003C  8  AF A1 02 12 01 00 2A FF 
   952)     35766.0  Rx         0130  5  F7 FF FF FF FF 
   953)     35864.8  Rx         003C  8  48 A2 02 12 01 00 2A FF 
   954)     35865.2  Rx         0130  5  F7 FF FF FF FF 
   955)     35964.8  Rx         003C  8  15 A3 02 12 01 00 2A FF 
   956)     35965.3  Rx         0130  5  F7 FF FF FF FF 
   957)     36064.8  Rx         003C  8  9B A4 02 12 01 00 2A FF 
   958)     36065.3  Rx         0130  5  F7 FF FF FF FF 
   959)     36164.8  Rx         003C  8  C6 A5 02 12 01 00 2A FF 
   960)     36165.1  Rx         0130  5  F7 FF FF FF FF 
   961)     36173.5  Rx         0799  7  1E 01 16 04 0F 03 0A 
   962)     36264.8  Rx         003C  8  21 A6 02 12 01 00 2A FF 
   963)     36265.2  Rx         0130  5  F7 FF FF FF FF 
   964)     36364.8  Rx         003C  8  7C A7 02 12 01 00 2A FF 
   965)     36365.6  Rx         0130  5  F7 FF FF FF FF 
   966)     36464.8  Rx         003C  8  20 A8 02 12 01 00 2A FF 
   967)     36465.1  Rx         0130  5  F7 FF FF FF FF 
   968)     36564.7  Rx         003C  8  7D A9 02 12 01 00 2A FF 
   969)     36565.3  Rx         0130  5  F7 FF FF FF FF 
   970)     36665.0  Rx         003C  8  9A AA 02 12 01 00 2A FF 
   971)     36665.6  Rx         0130  5  F7 FF FF FF FF 
   972)     36675.5  Rx         0799  7  1C 01 16 04 11 03 0A 
   973)     36735.9  Rx         07C1  8  0C 18 00 0C FF 00 01 00 
   974)     36764.8  Rx         003C  8  C7 AB 02 12 01 00 2A FF 
   975)     36765.3  Rx         0130  5  F7 FF FF FF FF 
   976)     36777.3  Rx         07DF  8  02 01 0C 00 00 00 00 00 
   977)     36786.0  Rx         07E8  8  04 41 0C 0A 50 00 00 00 
   978)     36790.7  Rx         07E9  8  04 41 0C 0A 50 AA AA AA 
   979)     36801.9  Rx         07EF  8  04 41 0C 0A 50 FF FF FF 
   980)     36865.0  Rx         003C  8  49 AC 02 12 01 00 2A FF 
   981)     36865.2  Rx         0130  5  F7 FF FF FF FF 
   982)     36964.8  Rx         003C  8  14 AD 02 12 01 00 2A FF 
   983)     36965.5  Rx         0130  5  F7 FF FF FF FF 
   984)     37027.4  Rx         07DF  8  02 01 05 00 00 00 00 00 
   985)     37034.8  Rx         07E8  8  03 41 05 5D 00 00 00 00 
   986)     37041.7  Rx         07E9  8  03 41 05 5D AA AA AA AA 
   987)     37051.8  Rx         07EF  8  03 41 05 5D FF FF FF FF 
   988)     37065.1  Rx         003C  8  F3 AE 02 12 01 00 2A FF 
   989)     37065.3  Rx         0130  5  F7 FF FF FF FF 
   990)     37165.0  Rx         003C  8  F2 A0 02 12 01 00 2A FF 
   991)     37165.2  Rx         0130  5  F7 FF FF FF FF 
   992)     37177.1  Rx         0799  7  1C 01 16 04 10 03 0A 
   993)     37265.0  Rx         003C  8  AF A1 02 12 01 00 2A FF 
   994)     37265.4  Rx         0130  5  F7 FF FF FF FF 
   995)     37277.3  Rx         07DF  8  02 01 0D 00 00 00 00 00 
   996)     37285.7  Rx         07E8  8  03 41 0D 00 00 00 00 00 
   997)     37290.6  Rx         07E9  8  03 41 0D 00 AA AA AA AA 
   998)     37301.9  Rx         07EF  8  03 41 0D 00 FF FF FF FF 
   999)     37364.9  Rx         003C  8  48 A2 02 12 01 00 2A FF 
  1000)     37365.3  Rx         0130  5  F7 FF FF FF FF 
  1001)     37464.7  Rx         003C  8  15 A3 02 12 01 00 2A FF 
  1002)     37465.1  Rx         0130  5  F7 FF FF FF FF 
  1003)     37526.4  Rx         07DF  8  02 01 10 00 00 00 00 00 
  1004)     37535.8  Rx         07E8  8  04 41 10 01 8D 00 00 00 
  1005)     37564.8  Rx         003C  8  9B A4 02 12 01 00 2A FF 
  1006)     37565.5  Rx         0130  5  F7 FF FF FF FF 
  1007)     37664.8  Rx         003C  8  C6 A5 02 12 01 00 2A FF 
  1008)     37665.1  Rx         0130  5  F7 FF FF FF FF 
  1009)     37682.2  Rx         0799  7  1D 01 17 04 10 03 0A 
  1010)     37735.9  Rx         07C1  8  0C 18 00 0C FF 00 01 00 
  1011)     37764.7  Rx         003C  8  21 A6 02 12 01 00 2A FF 
  1012)     37765.1  Rx         0130  5  F7 FF FF FF FF 
  1013)     37778.5  Rx         07DF  8  02 01 11 00 00 00 00 00 
  1014)     37785.6  Rx         07E8  8  03 41 11 25 00 00 00 00 
  1015)     37801.6  Rx         07E9  8  03 41 11 24 AA AA AA AA 
  1016)     37801.9  Rx         07EF  8  03 41 11 24 FF FF FF FF 
  1017)     37864.8  Rx         003C  8  7C A7 02 12 01 00 2A FF 
  1018)     37865.5  Rx         0130  5  F7 FF FF FF FF 
  1019)     37964.8  Rx         003C  8  20 A8 02 12 01 00 2A FF 
  1020)     37965.3  Rx         0130  5  F7 FF FF FF FF 
  1021)     38026.4  Rx         07DF  8  02 01 0C 00 00 00 00 00 
  1022)     38035.7  Rx         07E8  8  04 41 0C 0A 7C 00 00 00 
  1023)     38041.7  Rx         07E9  8  04 41 0C 0A 74 AA AA AA 
  1024)     38046.8  Rx         07EF  8  04 41 0C 0A 74 FF FF FF 
  1025)     38064.7  Rx         003C  8  7D A9 02 12 01 00 2A FF 
  1026)     38065.1  Rx         0130  5  F7 FF FF FF FF 
  1027)     38164.8  Rx         003C  8  9A AA 02 12 01 00 2A FF 
  1028)     38165.5  Rx         0130  5  F7 FF FF FF FF 
  1029)     38198.5  Rx         0799  7  1D 01 16 04 10 03 0A 
  1030)     38264.7  Rx         003C  8  C7 AB 02 12 01 00 2A FF 
  1031)     38265.1  Rx         0130  5  F7 FF FF FF FF 
  1032)     38276.2  Rx         07DF  8  02 01 1F 00 00 00 00 00 
  1033)     38285.7  Rx         07E8  8  04 41 1F 01 28 00 00 00 
  1034)     38364.9  Rx         003C  8  49 AC 02 12 01 00 2A FF 
  1035)     38365.2  Rx         0130  5  F7 FF FF FF FF 
  1036)     38464.7  Rx         003C  8  14 AD 02 12 01 00 2A FF 
  1037)     38465.5  Rx         0130  5  F7 FF FF FF FF 
  1038)     38564.7  Rx         003C  8  F3 AE 02 12 01 00 2A FF 
  1039)     38565.1  Rx         0130  5  F7 FF FF FF FF 
  1040)     38664.7  Rx         003C  8  F2 A0 02 12 01 00 2A FF 
  1041)     38665.1  Rx         0130  5  F7 FF FF FF FF 
  1042)     38702.1  Rx         0799  7  1C 01 17 04 11 03 0A 
  1043)     38736.0  Rx         07C1  8  0C 18 00 0C FF 00 01 00 
  1044)     38764.8  Rx         003C  8  AF A1 02 12 01 00 2A FF 
  1045)     38765.8  Rx         0130  5  F7 FF FF FF FF 
  1046)     38864.8  Rx         003C  8  48 A2 02 12 01 00 2A FF 
  1047)     38865.1  Rx         0130  5  F7 FF FF FF FF 
  1048)     38964.7  Rx         003C  8  15 A3 02 12 01 00 2A FF 
  1049)     38965.1  Rx         0130  5  F7 FF FF FF FF 
  1050)     39064.7  Rx         003C  8  9B A4 02 12 01 00 2A FF 
  1051)     39065.5  Rx         0130  5  F7 FF FF FF FF 
  1052)     39165.0  Rx         003C  8  C6 A5 02 12 01 00 2A FF 
  1053)     39165.3  Rx         0130  5  F7 FF FF FF FF 
  1054)     39202.2  Rx         0799  7  1C 01 17 04 0F 03 0A 
  1055)     39264.8  Rx         003C  8  21 A6 02 12 01 00 2A FF 
  1056)     39265.1  Rx         0130  5  F7 FF FF FF FF 
  1057)     39276.4  Rx         07DF  8  02 01 0C 00 00 00 00 00 
  1058)     39287.0  Rx         07E8  8  04 41 0C 0A 6C 00 00 00 
  1059)     39290.7  Rx         07E9  8  04 41 0C 0A 74 AA AA AA 
  1060)     39296.8  Rx         07EF  8  04 41 0C 0A 74 FF FF FF 
  1061)     39364.9  Rx         003C  8  7C A7 02 12 01 00 2A FF 
  1062)     39365.6  Rx         0130  5  F7 FF FF FF FF 
  1063)     39464.8  Rx         003C  8  20 A8 02 12 01 00 2A FF 
  1064)     39465.2  Rx         0130  5  F7 FF FF FF FF 
  1065)     39526.3  Rx         07DF  8  02 01 0D 00 00 00 00 00 
  1066)     39535.7  Rx         07E8  8  03 41 0D 00 00 00 00 00 
  1067)     39541.6  Rx         07E9  8  03 41 0D 00 AA AA AA AA 
  1068)     39546.8  Rx         07EF  8  03 41 0D 00 FF FF FF FF 
  1069)     39564.8  Rx         003C  8  7D A9 02 12 01 00 2A FF 
  1070)     39565.3  Rx         0130  5  F7 FF FF FF FF 
  1071)     39664.8  Rx         003C  8  9A AA 02 12 01 00 2A FF 
  1072)     39665.5  Rx         0130  5  F7 FF FF FF FF 
  1073)     39707.4  Rx         0799  7  1D 01 17 04 11 03 0A 
  1074)     39736.0  Rx         07C1  8  0C 18 00 0C FF 00 01 00 
  1075)     39764.8  Rx         003C  8  C7 AB 02 12 01 00 2A FF 
  1076)     39765.1  Rx         0130  5  F7 FF FF FF FF 
  1077)     39864.7  Rx         003C  8  49 AC 02 12 01 00 2A FF 
  1078)     39865.1  Rx         0130  5  F7 FF FF FF FF 
  1079)     39964.7  Rx         003C  8  14 AD 02 12 01 00 2A FF 
  1080)     39965.5  Rx         0130  5  F7 FF FF FF FF 
  1081)     40064.8  Rx         003C  8  F3 AE 02 12 01 00 2A FF 
  1082)     40065.1  Rx         0130  5  F7 FF FF FF FF 
  1083)     40164.7  Rx         003C  8  F2 A0 02 12 01 00 2A FF 
  1084)     40165.1  Rx         0130  5  F7 FF FF FF FF 
  1085)     40207.5  Rx         0799  7  1D 01 16 04 10 03 0A 
  1086)     40264.7  Rx         003C  8  AF A1 02 12 01 00 2A FF 
  1087)     40265.5  Rx         0130  5  F7 FF FF FF FF 
  1088)     40364.8  Rx         003C  8  48 A2 02 12 01 00 2A FF 
  1089)     40365.2  Rx         0130  5  F7 FF FF FF FF 
  1090)     40464.7  Rx         003C  8  15 A3 02 12 01 00 2A FF 
  1091)     40465.1  Rx         0130  5  F7 FF FF FF FF 
  1092)     40525.3  Rx         07DF  8  02 01 0C 00 00 00 00 00 
  1093)     40535.7  Rx         07E8  8  04 41 0C 0A 6C 00 00 00 
  1094)     40541.6  Rx         07E9  8  04 41 0C 0A 40 AA AA AA 
  1095)     40546.8  Rx         07EF  8  04 41 0C 0A 40 FF FF FF 
  1096)     40564.8  Rx         003C  8  9B A4 02 12 01 00 2A FF 
  1097)     40565.5  Rx         0130  5  F7 FF FF FF FF 
  1098)     40664.9  Rx         003C  8  C6 A5 02 12 01 00 2A FF 
  1099)     40665.2  Rx         0130  5  F7 FF FF FF FF 
  1100)     40707.3  Rx         0799  7  1D 01 17 04 10 03 0A 
  1101)     40735.9  Rx         07C1  8  0C 18 00 0C FF 00 01 00 
  1102)     40764.7  Rx         003C  8  21 A6 02 12 01 00 2A FF 
  1103)     40765.0  Rx         0130  5  F7 FF FF FF FF 
